Time [s],Packet ID,Address,Data,Read/Write,ACK/NAK
0.001967958333333,0,0x1E,0x0A,Write,ACK
0.001990458333333,0,0x1E,0x01,Write,ACK
0.011967791666667,1,0x1E,0x03,Write,ACK
0.012021958333333,2,0x1F,0xF9,Read,ACK
0.012044458333333,2,0x1F,0xFF,Read,ACK
0.012066958333333,2,0x1F,0x2B,Read,ACK
0.012089458333333,2,0x1F,0x00,Read,ACK
0.012111958333333,2,0x1F,0x85,Read,ACK
0.012134458333333,2,0x1F,0xFF,Read,NAK
0.021974166666667,3,0x1E,0x0A,Write,ACK
0.021996666666667,3,0x1E,0x01,Write,ACK
0.031966666666667,4,0x1E,0x03,Write,ACK
0.032020875000000,5,0x1F,0xF9,Read,ACK
0.032043375000000,5,0x1F,0xFF,Read,ACK
0.032065875000000,5,0x1F,0x2B,Read,ACK
0.032088375000000,5,0x1F,0x00,Read,ACK
0.032110875000000,5,0x1F,0x84,Read,ACK
0.032133375000000,5,0x1F,0xFF,Read,NAK
0.041969041666667,6,0x1E,0x0A,Write,ACK
0.041991541666667,6,0x1E,0x01,Write,ACK
0.051969750000000,7,0x1E,0x03,Write,ACK
0.052023958333333,8,0x1F,0xF8,Read,ACK
0.052046458333333,8,0x1F,0xFF,Read,ACK
0.052068958333333,8,0x1F,0x2A,Read,ACK
0.052091458333333,8,0x1F,0x00,Read,ACK
0.052113958333333,8,0x1F,0x84,Read,ACK
0.052136458333333,8,0x1F,0xFF,Read,NAK
0.061967166666667,9,0x1E,0x0A,Write,ACK
0.061989666666667,9,0x1E,0x01,Write,ACK
0.071967458333333,10,0x1E,0x03,Write,ACK
0.072021583333333,11,0x1F,0xF9,Read,ACK
0.072044083333333,11,0x1F,0xFF,Read,ACK
0.072066583333333,11,0x1F,0x2A,Read,ACK
0.072089083333333,11,0x1F,0x00,Read,ACK
0.072111583333333,11,0x1F,0x84,Read,ACK
0.072134083333333,11,0x1F,0xFF,Read,NAK
0.081969375000000,12,0x1E,0x0A,Write,ACK
0.081991875000000,12,0x1E,0x01,Write,ACK
0.091967750000000,13,0x1E,0x03,Write,ACK
0.092022041666667,14,0x1F,0xF9,Read,ACK
0.092044541666667,14,0x1F,0xFF,Read,ACK
0.092067041666667,14,0x1F,0x2B,Read,ACK
0.092089541666667,14,0x1F,0x00,Read,ACK
0.092112041666667,14,0x1F,0x83,Read,ACK
0.092134541666667,14,0x1F,0xFF,Read,NAK
0.101968041666667,15,0x1E,0x0A,Write,ACK
0.101990541666667,15,0x1E,0x01,Write,ACK
0.111970708333333,16,0x1E,0x03,Write,ACK
0.112024958333333,17,0x1F,0xF9,Read,ACK
0.112047416666667,17,0x1F,0xFF,Read,ACK
0.112069958333333,17,0x1F,0x2B,Read,ACK
0.112092458333333,17,0x1F,0x00,Read,ACK
0.112114916666667,17,0x1F,0x85,Read,ACK
0.112137416666667,17,0x1F,0xFF,Read,NAK
0.121977833333333,18,0x1E,0x0A,Write,ACK
0.122000333333333,18,0x1E,0x01,Write,ACK
0.131968458333333,19,0x1E,0x03,Write,ACK
0.132022375000000,20,0x1F,0xF9,Read,ACK
0.132044875000000,20,0x1F,0xFF,Read,ACK
0.132067375000000,20,0x1F,0x2B,Read,ACK
0.132089916666667,20,0x1F,0x00,Read,ACK
0.132112375000000,20,0x1F,0x86,Read,ACK
0.132134875000000,20,0x1F,0xFF,Read,NAK
0.141968666666667,21,0x1E,0x0A,Write,ACK
0.141991166666667,21,0x1E,0x01,Write,ACK
0.151968833333333,22,0x1E,0x03,Write,ACK
0.152023041666667,23,0x1F,0xF8,Read,ACK
0.152045541666667,23,0x1F,0xFF,Read,ACK
0.152068041666667,23,0x1F,0x2A,Read,ACK
0.152090541666667,23,0x1F,0x00,Read,ACK
0.152113041666667,23,0x1F,0x84,Read,ACK
0.152135541666667,23,0x1F,0xFF,Read,NAK
0.161971916666667,24,0x1E,0x0A,Write,ACK
0.161994416666667,24,0x1E,0x01,Write,ACK
0.171971833333333,25,0x1E,0x03,Write,ACK
0.172026208333333,26,0x1F,0xF8,Read,ACK
0.172048708333333,26,0x1F,0xFF,Read,ACK
0.172071208333333,26,0x1F,0x2A,Read,ACK
0.172093708333333,26,0x1F,0x00,Read,ACK
0.172116208333333,26,0x1F,0x84,Read,ACK
0.172138708333333,26,0x1F,0xFF,Read,NAK
0.181972375000000,27,0x1E,0x0A,Write,ACK
0.181994875000000,27,0x1E,0x01,Write,ACK
0.191969583333333,28,0x1E,0x03,Write,ACK
0.192026666666667,29,0x1F,0xF9,Read,ACK
0.192049166666667,29,0x1F,0xFF,Read,ACK
0.192071666666667,29,0x1F,0x2B,Read,ACK
0.192094166666667,29,0x1F,0x00,Read,ACK
0.192116666666667,29,0x1F,0x86,Read,ACK
0.192139166666667,29,0x1F,0xFF,Read,NAK
0.201969666666667,30,0x1E,0x0A,Write,ACK
0.201992166666667,30,0x1E,0x01,Write,ACK
0.211972958333333,31,0x1E,0x03,Write,ACK
0.212027166666667,32,0x1F,0xF9,Read,ACK
0.212049666666667,32,0x1F,0xFF,Read,ACK
0.212072166666667,32,0x1F,0x2B,Read,ACK
0.212094708333333,32,0x1F,0x00,Read,ACK
0.212117166666667,32,0x1F,0x85,Read,ACK
0.212139666666667,32,0x1F,0xFF,Read,NAK
0.221974875000000,33,0x1E,0x0A,Write,ACK
0.221997375000000,33,0x1E,0x01,Write,ACK
0.231970583333333,34,0x1E,0x03,Write,ACK
0.232024791666667,35,0x1F,0xF8,Read,ACK
0.232047291666667,35,0x1F,0xFF,Read,ACK
0.232069791666667,35,0x1F,0x2B,Read,ACK
0.232092291666667,35,0x1F,0x00,Read,ACK
0.232114791666667,35,0x1F,0x83,Read,ACK
0.232137291666667,35,0x1F,0xFF,Read,NAK
0.241972625000000,36,0x1E,0x0A,Write,ACK
0.241995125000000,36,0x1E,0x01,Write,ACK
0.251970666666667,37,0x1E,0x03,Write,ACK
0.252025291666667,38,0x1F,0xF9,Read,ACK
0.252047791666667,38,0x1F,0xFF,Read,ACK
0.252070291666667,38,0x1F,0x2A,Read,ACK
0.252092791666667,38,0x1F,0x00,Read,ACK
0.252115291666667,38,0x1F,0x83,Read,ACK
0.252137791666667,38,0x1F,0xFF,Read,NAK
0.261970666666667,39,0x1E,0x0A,Write,ACK
0.261993166666667,39,0x1E,0x01,Write,ACK
0.271971000000000,40,0x1E,0x03,Write,ACK
0.272025333333333,41,0x1F,0xF9,Read,ACK
0.272047833333333,41,0x1F,0xFF,Read,ACK
0.272070333333333,41,0x1F,0x2B,Read,ACK
0.272092833333333,41,0x1F,0x00,Read,ACK
0.272115333333333,41,0x1F,0x84,Read,ACK
0.272137833333333,41,0x1F,0xFF,Read,NAK
0.281973583333333,42,0x1E,0x0A,Write,ACK
0.281996083333333,42,0x1E,0x01,Write,ACK
0.291971333333333,43,0x1E,0x03,Write,ACK
0.292025708333333,44,0x1F,0xFA,Read,ACK
0.292048208333333,44,0x1F,0xFF,Read,ACK
0.292070708333333,44,0x1F,0x2B,Read,ACK
0.292093208333333,44,0x1F,0x00,Read,ACK
0.292115708333333,44,0x1F,0x83,Read,ACK
0.292138208333333,44,0x1F,0xFF,Read,NAK
0.301971791666667,45,0x1E,0x0A,Write,ACK
0.301994291666667,45,0x1E,0x01,Write,ACK
0.311971708333333,46,0x1E,0x03,Write,ACK
0.312028500000000,47,0x1F,0xF9,Read,ACK
0.312051000000000,47,0x1F,0xFF,Read,ACK
0.312073500000000,47,0x1F,0x2A,Read,ACK
0.312096000000000,47,0x1F,0x00,Read,ACK
0.312118500000000,47,0x1F,0x85,Read,ACK
0.312141000000000,47,0x1F,0xFF,Read,NAK
0.321971791666667,48,0x1E,0x0A,Write,ACK
0.321994291666667,48,0x1E,0x01,Write,ACK
0.331972125000000,49,0x1E,0x03,Write,ACK
0.332026333333333,50,0x1F,0xF9,Read,ACK
0.332048833333333,50,0x1F,0xFF,Read,ACK
0.332071333333333,50,0x1F,0x2B,Read,ACK
0.332093833333333,50,0x1F,0x00,Read,ACK
0.332116333333333,50,0x1F,0x82,Read,ACK
0.332138833333333,50,0x1F,0xFF,Read,NAK
0.341974875000000,51,0x1E,0x0A,Write,ACK
0.341997375000000,51,0x1E,0x01,Write,ACK
0.351972458333333,52,0x1E,0x03,Write,ACK
0.352026666666667,53,0x1F,0xF9,Read,ACK
0.352049166666667,53,0x1F,0xFF,Read,ACK
0.352071666666667,53,0x1F,0x2A,Read,ACK
0.352094166666667,53,0x1F,0x00,Read,ACK
0.352116666666667,53,0x1F,0x83,Read,ACK
0.352139166666667,53,0x1F,0xFF,Read,NAK
0.361974333333333,54,0x1E,0x0A,Write,ACK
0.361996833333333,54,0x1E,0x01,Write,ACK
0.371972791666667,55,0x1E,0x03,Write,ACK
0.372029583333333,56,0x1F,0xF9,Read,ACK
0.372052083333333,56,0x1F,0xFF,Read,ACK
0.372074583333333,56,0x1F,0x2A,Read,ACK
0.372097083333333,56,0x1F,0x00,Read,ACK
0.372119583333333,56,0x1F,0x82,Read,ACK
0.372142083333333,56,0x1F,0xFF,Read,NAK
0.381973750000000,57,0x1E,0x0A,Write,ACK
0.381996250000000,57,0x1E,0x01,Write,ACK
0.391974750000000,58,0x1E,0x03,Write,ACK
0.392029083333333,59,0x1F,0xF9,Read,ACK
0.392051583333333,59,0x1F,0xFF,Read,ACK
0.392074083333333,59,0x1F,0x2B,Read,ACK
0.392096583333333,59,0x1F,0x00,Read,ACK
0.392119083333333,59,0x1F,0x85,Read,ACK
0.392141583333333,59,0x1F,0xFF,Read,NAK
0.401976208333333,60,0x1E,0x0A,Write,ACK
0.401998708333333,60,0x1E,0x01,Write,ACK
0.411973541666667,61,0x1E,0x03,Write,ACK
0.412027750000000,62,0x1F,0xF9,Read,ACK
0.412050250000000,62,0x1F,0xFF,Read,ACK
0.412072750000000,62,0x1F,0x2C,Read,ACK
0.412095250000000,62,0x1F,0x00,Read,ACK
0.412117750000000,62,0x1F,0x85,Read,ACK
0.412140250000000,62,0x1F,0xFF,Read,NAK
0.421976791666667,63,0x1E,0x0A,Write,ACK
0.421999291666667,63,0x1E,0x01,Write,ACK
0.431973875000000,64,0x1E,0x03,Write,ACK
0.432028250000000,65,0x1F,0xF9,Read,ACK
0.432050750000000,65,0x1F,0xFF,Read,ACK
0.432073250000000,65,0x1F,0x2B,Read,ACK
0.432095750000000,65,0x1F,0x00,Read,ACK
0.432118250000000,65,0x1F,0x85,Read,ACK
0.432140750000000,65,0x1F,0xFF,Read,NAK
0.441975500000000,66,0x1E,0x0A,Write,ACK
0.441998000000000,66,0x1E,0x01,Write,ACK
0.451976833333333,67,0x1E,0x03,Write,ACK
0.452031041666667,68,0x1F,0xF9,Read,ACK
0.452053541666667,68,0x1F,0xFF,Read,ACK
0.452076041666667,68,0x1F,0x2A,Read,ACK
0.452098541666667,68,0x1F,0x00,Read,ACK
0.452121041666667,68,0x1F,0x83,Read,ACK
0.452143541666667,68,0x1F,0xFF,Read,NAK
0.461977333333333,69,0x1E,0x0A,Write,ACK
0.461999833333333,69,0x1E,0x01,Write,ACK
0.471974541666667,70,0x1E,0x03,Write,ACK
0.472028875000000,71,0x1F,0xFA,Read,ACK
0.472051375000000,71,0x1F,0xFF,Read,ACK
0.472073875000000,71,0x1F,0x2B,Read,ACK
0.472096375000000,71,0x1F,0x00,Read,ACK
0.472118875000000,71,0x1F,0x84,Read,ACK
0.472141375000000,71,0x1F,0xFF,Read,NAK
0.481974750000000,72,0x1E,0x0A,Write,ACK
0.481997250000000,72,0x1E,0x01,Write,ACK
0.491974916666667,73,0x1E,0x03,Write,ACK
0.492029291666667,74,0x1F,0xF9,Read,ACK
0.492051791666667,74,0x1F,0xFF,Read,ACK
0.492074291666667,74,0x1F,0x2B,Read,ACK
0.492096791666667,74,0x1F,0x00,Read,ACK
0.492119291666667,74,0x1F,0x83,Read,ACK
0.492141791666667,74,0x1F,0xFF,Read,NAK
0.501977083333333,75,0x1E,0x0A,Write,ACK
0.501999583333333,75,0x1E,0x01,Write,ACK
0.511977875000000,76,0x1E,0x03,Write,ACK
0.512032041666667,77,0x1F,0xF9,Read,ACK
0.512054541666667,77,0x1F,0xFF,Read,ACK
0.512077041666667,77,0x1F,0x2B,Read,ACK
0.512099541666667,77,0x1F,0x00,Read,ACK
0.512122041666667,77,0x1F,0x84,Read,ACK
0.512144541666667,77,0x1F,0xFF,Read,NAK
0.521975333333333,78,0x1E,0x0A,Write,ACK
0.521997833333333,78,0x1E,0x01,Write,ACK
0.531975666666667,79,0x1E,0x03,Write,ACK
0.532029833333333,80,0x1F,0xF9,Read,ACK
0.532052333333333,80,0x1F,0xFF,Read,ACK
0.532074833333333,80,0x1F,0x2B,Read,ACK
0.532097333333333,80,0x1F,0x00,Read,ACK
0.532119833333333,80,0x1F,0x84,Read,ACK
0.532142333333333,80,0x1F,0xFF,Read,NAK
0.541975708333333,81,0x1E,0x0A,Write,ACK
0.541998208333333,81,0x1E,0x01,Write,ACK
0.551976000000000,82,0x1E,0x03,Write,ACK
0.552030208333333,83,0x1F,0xF9,Read,ACK
0.552052708333333,83,0x1F,0xFF,Read,ACK
0.552075208333333,83,0x1F,0x2A,Read,ACK
0.552097708333333,83,0x1F,0x00,Read,ACK
0.552120208333333,83,0x1F,0x84,Read,ACK
0.552142708333333,83,0x1F,0xFF,Read,NAK
0.561976125000000,84,0x1E,0x0A,Write,ACK
0.561998625000000,84,0x1E,0x01,Write,ACK
0.571979000000000,85,0x1E,0x03,Write,ACK
0.572033333333333,86,0x1F,0xF9,Read,ACK
0.572055833333333,86,0x1F,0xFF,Read,ACK
0.572078333333333,86,0x1F,0x2A,Read,ACK
0.572100833333333,86,0x1F,0x00,Read,ACK
0.572123333333333,86,0x1F,0x83,Read,ACK
0.572145833333333,86,0x1F,0xFF,Read,NAK
0.581981125000000,87,0x1E,0x0A,Write,ACK
0.582003625000000,87,0x1E,0x01,Write,ACK
0.591976750000000,88,0x1E,0x03,Write,ACK
0.592030833333333,89,0x1F,0xF9,Read,ACK
0.592053333333333,89,0x1F,0xFF,Read,ACK
0.592075833333333,89,0x1F,0x2B,Read,ACK
0.592098333333333,89,0x1F,0x00,Read,ACK
0.592120833333333,89,0x1F,0x83,Read,ACK
0.592143333333333,89,0x1F,0xFF,Read,NAK
0.601976875000000,90,0x1E,0x0A,Write,ACK
0.601999375000000,90,0x1E,0x01,Write,ACK
0.611977083333333,91,0x1E,0x03,Write,ACK
0.612031291666667,92,0x1F,0xF9,Read,ACK
0.612053791666667,92,0x1F,0xFF,Read,ACK
0.612076291666667,92,0x1F,0x2B,Read,ACK
0.612098791666667,92,0x1F,0x00,Read,ACK
0.612121291666667,92,0x1F,0x84,Read,ACK
0.612143791666667,92,0x1F,0xFF,Read,NAK
0.621982291666667,93,0x1E,0x0A,Write,ACK
0.622004791666667,93,0x1E,0x01,Write,ACK
0.631980125000000,94,0x1E,0x03,Write,ACK
0.632034166666667,95,0x1F,0xF9,Read,ACK
0.632056666666667,95,0x1F,0xFF,Read,ACK
0.632079166666667,95,0x1F,0x2B,Read,ACK
0.632101666666667,95,0x1F,0x00,Read,ACK
0.632124166666667,95,0x1F,0x84,Read,ACK
0.632146666666667,95,0x1F,0xFF,Read,NAK
0.641979833333333,96,0x1E,0x0A,Write,ACK
0.642002333333333,96,0x1E,0x01,Write,ACK
0.651977875000000,97,0x1E,0x03,Write,ACK
0.652031750000000,98,0x1F,0xF9,Read,ACK
0.652054250000000,98,0x1F,0xFF,Read,ACK
0.652076750000000,98,0x1F,0x2B,Read,ACK
0.652099250000000,98,0x1F,0x00,Read,ACK
0.652121750000000,98,0x1F,0x83,Read,ACK
0.652144250000000,98,0x1F,0xFF,Read,NAK
0.661985541666667,99,0x1E,0x0A,Write,ACK
0.662008041666667,99,0x1E,0x01,Write,ACK
0.671978208333333,100,0x1E,0x03,Write,ACK
0.672032958333333,101,0x1F,0xF9,Read,ACK
0.672055458333333,101,0x1F,0xFF,Read,ACK
0.672077958333333,101,0x1F,0x2A,Read,ACK
0.672100458333333,101,0x1F,0x00,Read,ACK
0.672122958333333,101,0x1F,0x84,Read,ACK
0.672145458333333,101,0x1F,0xFF,Read,NAK
0.681981000000000,102,0x1E,0x0A,Write,ACK
0.682003500000000,102,0x1E,0x01,Write,ACK
0.691981250000000,103,0x1E,0x03,Write,ACK
0.692035583333333,104,0x1F,0xFA,Read,ACK
0.692058083333333,104,0x1F,0xFF,Read,ACK
0.692080583333333,104,0x1F,0x2B,Read,ACK
0.692103083333333,104,0x1F,0x00,Read,ACK
0.692125583333333,104,0x1F,0x83,Read,ACK
0.692148083333333,104,0x1F,0xFF,Read,NAK
0.701978458333333,105,0x1E,0x0A,Write,ACK
0.702000958333333,105,0x1E,0x01,Write,ACK
0.711978875000000,106,0x1E,0x03,Write,ACK
0.712032791666667,107,0x1F,0xFA,Read,ACK
0.712055333333333,107,0x1F,0xFF,Read,ACK
0.712077791666667,107,0x1F,0x2B,Read,ACK
0.712100333333333,107,0x1F,0x00,Read,ACK
0.712122791666667,107,0x1F,0x84,Read,ACK
0.712145291666667,107,0x1F,0xFF,Read,NAK
0.721979333333333,108,0x1E,0x0A,Write,ACK
0.722001833333333,108,0x1E,0x01,Write,ACK
0.731979250000000,109,0x1E,0x03,Write,ACK
0.732033458333333,110,0x1F,0xF9,Read,ACK
0.732055958333333,110,0x1F,0xFF,Read,ACK
0.732078458333333,110,0x1F,0x2B,Read,ACK
0.732100958333333,110,0x1F,0x00,Read,ACK
0.732123458333333,110,0x1F,0x83,Read,ACK
0.732145958333333,110,0x1F,0xFF,Read,NAK
0.741981958333333,111,0x1E,0x0A,Write,ACK
0.742004458333333,111,0x1E,0x01,Write,ACK
0.751981541666667,112,0x1E,0x03,Write,ACK
0.752035750000000,113,0x1F,0xF9,Read,ACK
0.752058250000000,113,0x1F,0xFF,Read,ACK
0.752080750000000,113,0x1F,0x2A,Read,ACK
0.752103250000000,113,0x1F,0x00,Read,ACK
0.752125750000000,113,0x1F,0x83,Read,ACK
0.752148250000000,113,0x1F,0xFF,Read,NAK
0.761980875000000,114,0x1E,0x0A,Write,ACK
0.762003375000000,114,0x1E,0x01,Write,ACK
0.771980041666667,115,0x1E,0x03,Write,ACK
0.772034125000000,116,0x1F,0xFA,Read,ACK
0.772056625000000,116,0x1F,0xFF,Read,ACK
0.772079125000000,116,0x1F,0x2A,Read,ACK
0.772101625000000,116,0x1F,0x00,Read,ACK
0.772124125000000,116,0x1F,0x83,Read,ACK
0.772146625000000,116,0x1F,0xFF,Read,NAK
0.781984041666667,117,0x1E,0x0A,Write,ACK
0.782006541666667,117,0x1E,0x01,Write,ACK
0.791980291666667,118,0x1E,0x03,Write,ACK
0.792034500000000,119,0x1F,0xF9,Read,ACK
0.792057000000000,119,0x1F,0xFF,Read,ACK
0.792079500000000,119,0x1F,0x2B,Read,ACK
0.792102000000000,119,0x1F,0x00,Read,ACK
0.792124500000000,119,0x1F,0x84,Read,ACK
0.792147000000000,119,0x1F,0xFF,Read,NAK
0.801983041666667,120,0x1E,0x0A,Write,ACK
0.802005541666667,120,0x1E,0x01,Write,ACK
0.811980666666667,121,0x1E,0x03,Write,ACK
0.812034875000000,122,0x1F,0xFA,Read,ACK
0.812057375000000,122,0x1F,0xFF,Read,ACK
0.812079916666667,122,0x1F,0x2B,Read,ACK
0.812102416666667,122,0x1F,0x00,Read,ACK
0.812124916666667,122,0x1F,0x85,Read,ACK
0.812147416666667,122,0x1F,0xFF,Read,NAK
0.821982458333333,123,0x1E,0x0A,Write,ACK
0.822004958333333,123,0x1E,0x01,Write,ACK
0.831981041666667,124,0x1E,0x03,Write,ACK
0.832037875000000,125,0x1F,0xF9,Read,ACK
0.832060416666667,125,0x1F,0xFF,Read,ACK
0.832082916666667,125,0x1F,0x2B,Read,ACK
0.832105416666667,125,0x1F,0x00,Read,ACK
0.832127916666667,125,0x1F,0x84,Read,ACK
0.832150416666667,125,0x1F,0xFF,Read,NAK
0.841981166666667,126,0x1E,0x0A,Write,ACK
0.842003666666667,126,0x1E,0x01,Write,ACK
0.851981416666667,127,0x1E,0x03,Write,ACK
0.852035625000000,128,0x1F,0xF9,Read,ACK
0.852058125000000,128,0x1F,0xFF,Read,ACK
0.852080625000000,128,0x1F,0x2A,Read,ACK
0.852103125000000,128,0x1F,0x00,Read,ACK
0.852125625000000,128,0x1F,0x84,Read,ACK
0.852148125000000,128,0x1F,0xFF,Read,NAK
0.861984250000000,129,0x1E,0x0A,Write,ACK
0.862006750000000,129,0x1E,0x01,Write,ACK
0.871981750000000,130,0x1E,0x03,Write,ACK
0.872036125000000,131,0x1F,0xFA,Read,ACK
0.872058625000000,131,0x1F,0xFF,Read,ACK
0.872081125000000,131,0x1F,0x2A,Read,ACK
0.872103625000000,131,0x1F,0x00,Read,ACK
0.872126125000000,131,0x1F,0x83,Read,ACK
0.872148625000000,131,0x1F,0xFF,Read,NAK
0.881982250000000,132,0x1E,0x0A,Write,ACK
0.882004750000000,132,0x1E,0x01,Write,ACK
0.891982125000000,133,0x1E,0x03,Write,ACK
0.892035416666667,134,0x1F,0xF9,Read,ACK
0.892057916666667,134,0x1F,0xFF,Read,ACK
0.892080416666667,134,0x1F,0x2B,Read,ACK
0.892102916666667,134,0x1F,0x00,Read,ACK
0.892125416666667,134,0x1F,0x83,Read,ACK
0.892147916666667,134,0x1F,0xFF,Read,NAK
0.901982333333333,135,0x1E,0x0A,Write,ACK
0.902004833333333,135,0x1E,0x01,Write,ACK
0.911982916666667,136,0x1E,0x03,Write,ACK
0.912037125000000,137,0x1F,0xFA,Read,ACK
0.912059625000000,137,0x1F,0xFF,Read,ACK
0.912082166666667,137,0x1F,0x2B,Read,ACK
0.912104666666667,137,0x1F,0x00,Read,ACK
0.912127125000000,137,0x1F,0x84,Read,ACK
0.912149666666667,137,0x1F,0xFF,Read,NAK
0.921987250000000,138,0x1E,0x0A,Write,ACK
0.922009750000000,138,0x1E,0x01,Write,ACK
0.931982833333333,139,0x1E,0x03,Write,ACK
0.932037041666667,140,0x1F,0xF9,Read,ACK
0.932059541666667,140,0x1F,0xFF,Read,ACK
0.932082041666667,140,0x1F,0x2B,Read,ACK
0.932104541666667,140,0x1F,0x00,Read,ACK
0.932127041666667,140,0x1F,0x84,Read,ACK
0.932149541666667,140,0x1F,0xFF,Read,NAK
0.941983000000000,141,0x1E,0x0A,Write,ACK
0.942005500000000,141,0x1E,0x01,Write,ACK
0.951983208333333,142,0x1E,0x03,Write,ACK
0.952037416666667,143,0x1F,0xF9,Read,ACK
0.952059916666667,143,0x1F,0xFF,Read,ACK
0.952082416666667,143,0x1F,0x2B,Read,ACK
0.952104916666667,143,0x1F,0x00,Read,ACK
0.952127416666667,143,0x1F,0x85,Read,ACK
0.952149916666667,143,0x1F,0xFF,Read,NAK
0.961983333333333,144,0x1E,0x0A,Write,ACK
0.962005833333333,144,0x1E,0x01,Write,ACK
0.971986166666667,145,0x1E,0x03,Write,ACK
0.972040500000000,146,0x1F,0xF9,Read,ACK
0.972063000000000,146,0x1F,0xFF,Read,ACK
0.972085500000000,146,0x1F,0x2A,Read,ACK
0.972108000000000,146,0x1F,0x00,Read,ACK
0.972130500000000,146,0x1F,0x83,Read,ACK
0.972153000000000,146,0x1F,0xFF,Read,NAK
0.981986333333333,147,0x1E,0x0A,Write,ACK
0.982008875000000,147,0x1E,0x01,Write,ACK
0.991983958333333,148,0x1E,0x03,Write,ACK
0.992038291666667,149,0x1F,0xF9,Read,ACK
0.992060791666667,149,0x1F,0xFF,Read,ACK
0.992083291666667,149,0x1F,0x2B,Read,ACK
0.992105791666667,149,0x1F,0x00,Read,ACK
0.992128291666667,149,0x1F,0x85,Read,ACK
0.992150791666667,149,0x1F,0xFF,Read,NAK
1.001984375000000,150,0x1E,0x0A,Write,ACK
1.002006875000000,150,0x1E,0x01,Write,ACK
1.011984333333333,151,0x1E,0x03,Write,ACK
1.012038541666667,152,0x1F,0xFA,Read,ACK
1.012061041666667,152,0x1F,0xFF,Read,ACK
1.012083583333333,152,0x1F,0x2B,Read,ACK
1.012106041666667,152,0x1F,0x00,Read,ACK
1.012128541666667,152,0x1F,0x83,Read,ACK
1.012151041666667,152,0x1F,0xFF,Read,NAK
1.021989166666667,153,0x1E,0x0A,Write,ACK
1.022011666666667,153,0x1E,0x01,Write,ACK
1.031987250000000,154,0x1E,0x03,Write,ACK
1.032041291666667,155,0x1F,0xF9,Read,ACK
1.032063791666667,155,0x1F,0xFF,Read,ACK
1.032086291666667,155,0x1F,0x2B,Read,ACK
1.032108791666667,155,0x1F,0x00,Read,ACK
1.032131250000000,155,0x1F,0x83,Read,ACK
1.032153791666667,155,0x1F,0xFF,Read,NAK
1.041984750000000,156,0x1E,0x0A,Write,ACK
1.042007250000000,156,0x1E,0x01,Write,ACK
1.051985000000000,157,0x1E,0x03,Write,ACK
1.052039166666667,158,0x1F,0xF9,Read,ACK
1.052061666666667,158,0x1F,0xFF,Read,ACK
1.052084166666667,158,0x1F,0x2B,Read,ACK
1.052106666666667,158,0x1F,0x00,Read,ACK
1.052129166666667,158,0x1F,0x84,Read,ACK
1.052151666666667,158,0x1F,0xFF,Read,NAK
1.061985416666667,159,0x1E,0x0A,Write,ACK
1.062007916666667,159,0x1E,0x01,Write,ACK
1.071985416666667,160,0x1E,0x03,Write,ACK
1.072039791666667,161,0x1F,0xF9,Read,ACK
1.072062291666667,161,0x1F,0xFF,Read,ACK
1.072084791666667,161,0x1F,0x2B,Read,ACK
1.072107291666667,161,0x1F,0x00,Read,ACK
1.072129791666667,161,0x1F,0x83,Read,ACK
1.072152291666667,161,0x1F,0xFF,Read,NAK
1.081985500000000,162,0x1E,0x0A,Write,ACK
1.082008000000000,162,0x1E,0x01,Write,ACK
1.091988291666667,163,0x1E,0x03,Write,ACK
1.092042666666667,164,0x1F,0xFA,Read,ACK
1.092065166666667,164,0x1F,0xFF,Read,ACK
1.092087666666667,164,0x1F,0x2B,Read,ACK
1.092110166666667,164,0x1F,0x00,Read,ACK
1.092132666666667,164,0x1F,0x82,Read,ACK
1.092155166666667,164,0x1F,0xFF,Read,NAK
1.101985750000000,165,0x1E,0x0A,Write,ACK
1.102008291666667,165,0x1E,0x01,Write,ACK
1.111986083333333,166,0x1E,0x03,Write,ACK
1.112040041666667,167,0x1F,0xFA,Read,ACK
1.112062541666667,167,0x1F,0xFF,Read,ACK
1.112085041666667,167,0x1F,0x2C,Read,ACK
1.112107541666667,167,0x1F,0x00,Read,ACK
1.112130041666667,167,0x1F,0x85,Read,ACK
1.112152541666667,167,0x1F,0xFF,Read,NAK
1.121986041666667,168,0x1E,0x0A,Write,ACK
1.122008541666667,168,0x1E,0x01,Write,ACK
1.131986500000000,169,0x1E,0x03,Write,ACK
1.132040708333333,170,0x1F,0xF9,Read,ACK
1.132063208333333,170,0x1F,0xFF,Read,ACK
1.132085708333333,170,0x1F,0x2B,Read,ACK
1.132108208333333,170,0x1F,0x00,Read,ACK
1.132130708333333,170,0x1F,0x83,Read,ACK
1.132153208333333,170,0x1F,0xFF,Read,NAK
1.141988375000000,171,0x1E,0x0A,Write,ACK
1.142010875000000,171,0x1E,0x01,Write,ACK
1.151989541666667,172,0x1E,0x03,Write,ACK
1.152043541666667,173,0x1F,0xF9,Read,ACK
1.152066041666667,173,0x1F,0xFF,Read,ACK
1.152088541666667,173,0x1F,0x2A,Read,ACK
1.152111041666667,173,0x1F,0x00,Read,ACK
1.152133541666667,173,0x1F,0x84,Read,ACK
1.152156041666667,173,0x1F,0xFF,Read,NAK
1.161986833333333,174,0x1E,0x0A,Write,ACK
1.162009333333333,174,0x1E,0x01,Write,ACK
1.171987208333333,175,0x1E,0x03,Write,ACK
1.172041291666667,176,0x1F,0xF9,Read,ACK
1.172063791666667,176,0x1F,0xFF,Read,ACK
1.172086291666667,176,0x1F,0x2B,Read,ACK
1.172108791666667,176,0x1F,0x00,Read,ACK
1.172131291666667,176,0x1F,0x83,Read,ACK
1.172153791666667,176,0x1F,0xFF,Read,NAK
1.181990333333333,177,0x1E,0x0A,Write,ACK
1.182012833333333,177,0x1E,0x01,Write,ACK
1.191987583333333,178,0x1E,0x03,Write,ACK
1.192041833333333,179,0x1F,0xF9,Read,ACK
1.192064333333333,179,0x1F,0xFF,Read,ACK
1.192086833333333,179,0x1F,0x2B,Read,ACK
1.192109333333333,179,0x1F,0x00,Read,ACK
1.192131833333333,179,0x1F,0x83,Read,ACK
1.192154333333333,179,0x1F,0xFF,Read,NAK
1.202001125000000,180,0x1E,0x0A,Write,ACK
1.202023625000000,180,0x1E,0x01,Write,ACK
1.211990500000000,181,0x1E,0x03,Write,ACK
1.212044708333333,182,0x1F,0xFA,Read,ACK
1.212067208333333,182,0x1F,0xFF,Read,ACK
1.212089708333333,182,0x1F,0x2B,Read,ACK
1.212112208333333,182,0x1F,0x00,Read,ACK
1.212134708333333,182,0x1F,0x84,Read,ACK
1.212157208333333,182,0x1F,0xFF,Read,NAK
1.221989041666667,183,0x1E,0x0A,Write,ACK
1.222011541666667,183,0x1E,0x01,Write,ACK
1.231988291666667,184,0x1E,0x03,Write,ACK
1.232042208333333,185,0x1F,0xF9,Read,ACK
1.232064708333333,185,0x1F,0xFF,Read,ACK
1.232087208333333,185,0x1F,0x2B,Read,ACK
1.232109708333333,185,0x1F,0x00,Read,ACK
1.232132208333333,185,0x1F,0x83,Read,ACK
1.232154708333333,185,0x1F,0xFF,Read,NAK
1.241990541666667,186,0x1E,0x0A,Write,ACK
1.242013041666667,186,0x1E,0x01,Write,ACK
1.251988583333333,187,0x1E,0x03,Write,ACK
1.252042791666667,188,0x1F,0xF9,Read,ACK
1.252065291666667,188,0x1F,0xFF,Read,ACK
1.252087791666667,188,0x1F,0x2B,Read,ACK
1.252110291666667,188,0x1F,0x00,Read,ACK
1.252132791666667,188,0x1F,0x83,Read,ACK
1.252155291666667,188,0x1F,0xFF,Read,NAK
1.261991250000000,189,0x1E,0x0A,Write,ACK
1.262013750000000,189,0x1E,0x01,Write,ACK
1.271991583333333,190,0x1E,0x03,Write,ACK
1.272045958333333,191,0x1F,0xF9,Read,ACK
1.272068458333333,191,0x1F,0xFF,Read,ACK
1.272090958333333,191,0x1F,0x2A,Read,ACK
1.272113458333333,191,0x1F,0x00,Read,ACK
1.272135958333333,191,0x1F,0x82,Read,ACK
1.272158458333333,191,0x1F,0xFF,Read,NAK
1.281990833333333,192,0x1E,0x0A,Write,ACK
1.282013333333333,192,0x1E,0x01,Write,ACK
1.291989458333333,193,0x1E,0x03,Write,ACK
1.292043458333333,194,0x1F,0xF9,Read,ACK
1.292065958333333,194,0x1F,0xFF,Read,ACK
1.292088458333333,194,0x1F,0x2B,Read,ACK
1.292110958333333,194,0x1F,0x00,Read,ACK
1.292133458333333,194,0x1F,0x83,Read,ACK
1.292155958333333,194,0x1F,0xFF,Read,NAK
1.301989791666667,195,0x1E,0x0A,Write,ACK
1.302012291666667,195,0x1E,0x01,Write,ACK
1.311989708333333,196,0x1E,0x03,Write,ACK
1.312043916666667,197,0x1F,0xF9,Read,ACK
1.312066416666667,197,0x1F,0xFF,Read,ACK
1.312088916666667,197,0x1F,0x2B,Read,ACK
1.312111416666667,197,0x1F,0x00,Read,ACK
1.312133916666667,197,0x1F,0x84,Read,ACK
1.312156416666667,197,0x1F,0xFF,Read,NAK
1.321992458333333,198,0x1E,0x0A,Write,ACK
1.322014958333333,198,0x1E,0x01,Write,ACK
1.331990041666667,199,0x1E,0x03,Write,ACK
1.332044250000000,200,0x1F,0xF9,Read,ACK
1.332066750000000,200,0x1F,0xFF,Read,ACK
1.332089250000000,200,0x1F,0x2C,Read,ACK
1.332111750000000,200,0x1F,0x00,Read,ACK
1.332134250000000,200,0x1F,0x84,Read,ACK
1.332156750000000,200,0x1F,0xFF,Read,NAK
1.341990125000000,201,0x1E,0x0A,Write,ACK
1.342012625000000,201,0x1E,0x01,Write,ACK
1.351990458333333,202,0x1E,0x03,Write,ACK
1.352047250000000,203,0x1F,0xF9,Read,ACK
1.352069750000000,203,0x1F,0xFF,Read,ACK
1.352092250000000,203,0x1F,0x2B,Read,ACK
1.352114750000000,203,0x1F,0x00,Read,ACK
1.352137250000000,203,0x1F,0x85,Read,ACK
