Time [s],Value,Parity Error,Framing Error
0.001894833333333,0x55,,
0.001933875000000,0x33,,
0.001972958333333,0x04,,
0.002012000000000,0xC2,,
0.002051041666667,0x03,,
0.002090083333333,0x09,,
0.002129125000000,0x0D,,
0.002168166666667,0x01,,
0.002207250000000,0x00,,
0.002246291666667,0x03,,
0.002285333333333,0x42,,
0.002324375000000,0x00,,
0.002363416666667,0x00,,
0.002402458333333,0x00,,
0.002441500000000,0x00,,
0.002480583333333,0x00,,
0.002519625000000,0x00,,
0.002558666666667,0x00,,
0.002597708333333,0x00,,
0.002636750000000,0x00,,
0.002675791666667,0x00,,
0.002714875000000,0x00,,
0.002753916666667,0x00,,
0.002792958333333,0x00,,
0.002832000000000,0x00,,
0.002871041666667,0x00,,
0.002910083333333,0x00,,
0.002949166666667,0x00,,
0.002988208333333,0x00,,
0.003027250000000,0x80,,
0.003066291666667,0x3F,,
0.003105333333333,0x00,,
0.003152208333333,0x00,,
0.003191250000000,0x00,,
0.003230291666667,0x00,,
0.003269333333333,0x00,,
0.003308375000000,0x00,,
0.003347416666667,0x00,,
0.003386500000000,0x00,,
0.003425541666667,0x00,,
0.003464583333333,0x00,,
0.003503625000000,0x00,,
0.003542666666667,0x00,,
0.003581708333333,0x00,,
0.003620791666667,0x00,,
0.003659833333333,0x00,,
0.003698875000000,0x00,,
0.003737916666667,0x00,,
0.003776958333333,0x00,,
0.003816000000000,0x57,,
0.003855083333333,0xC4,,
0.021895333333333,0x55,,
0.021934416666667,0x33,,
0.021973458333333,0x04,,
0.022012500000000,0xC2,,
0.022051541666667,0x03,,
0.022090583333333,0x09,,
0.022129625000000,0x0E,,
0.022168708333333,0x01,,
0.022207750000000,0x00,,
0.022246791666667,0x03,,
0.022285833333333,0x42,,
0.022324875000000,0x00,,
0.022363916666667,0x00,,
0.022403000000000,0x00,,
0.022442041666667,0x00,,
0.022481083333333,0x00,,
0.022520125000000,0x00,,
0.022559166666667,0x00,,
0.022598208333333,0x00,,
0.022637250000000,0x00,,
0.022676333333333,0x00,,
0.022715375000000,0x00,,
0.022754416666667,0x00,,
0.022793458333333,0x00,,
0.022832500000000,0x00,,
0.022871541666667,0x00,,
0.022910625000000,0x00,,
0.022949666666667,0x00,,
0.022988708333333,0x00,,
0.023027750000000,0x80,,
0.023066791666667,0x3F,,
0.023105833333333,0x00,,
0.023152708333333,0x00,,
0.023191750000000,0x00,,
0.023230791666667,0x00,,
0.023269833333333,0x00,,
0.023308916666667,0x00,,
0.023347958333333,0x00,,
0.023387000000000,0x00,,
0.023426041666667,0x00,,
0.023465083333333,0x00,,
0.023504125000000,0x00,,
0.023543208333333,0x00,,
0.023582250000000,0x00,,
0.023621291666667,0x00,,
0.023660333333333,0x00,,
0.023699375000000,0x00,,
0.023738416666667,0x00,,
0.023777458333333,0x00,,
0.023816541666667,0x1B,,
0.023855583333333,0x74,,
0.023894625000000,0x55,,
0.023933666666667,0x3F,,
0.023972708333333,0x04,,
0.024011750000000,0x8F,,
0.024050833333333,0x03,,
0.024089875000000,0x09,,
0.024128916666667,0x54,,
0.024167958333333,0x00,,
0.024207000000000,0x00,,
0.024246041666667,0x03,,
0.024285125000000,0x43,,
0.024324166666667,0x00,,
0.024363208333333,0x00,,
0.024410041666667,0x00,,
0.024449125000000,0x00,,
0.024488166666667,0x00,,
0.024527208333333,0x00,,
0.024566250000000,0x00,,
0.024605291666667,0x00,,
0.024644333333333,0x00,,
0.024683416666667,0x00,,
0.024722458333333,0x00,,
0.024761500000000,0x00,,
0.024800541666667,0x00,,
0.024839583333333,0x00,,
0.024878625000000,0x00,,
0.024917666666667,0x00,,
0.024956750000000,0x00,,
0.024995791666667,0x00,,
0.025034833333333,0x00,,
0.025073875000000,0x00,,
0.025112916666667,0x00,,
0.025151958333333,0x00,,
0.025191041666667,0x00,,
0.025230083333333,0x00,,
0.025269125000000,0x00,,
0.025308166666667,0x00,,
0.025347208333333,0x00,,
0.025386250000000,0x00,,
0.025425333333333,0x00,,
0.025464375000000,0x00,,
0.025503416666667,0x81,,
0.025542458333333,0x00,,
0.025581500000000,0x01,,
0.025620541666667,0x60,,
0.025667416666667,0x80,,
0.025706458333333,0x00,,
0.025745500000000,0x00,,
0.025784541666667,0x00,,
0.025823625000000,0x00,,
0.025862666666667,0x00,,
0.025901708333333,0x1C,,
0.025940750000000,0x00,,
0.025979791666667,0x00,,
0.026018833333333,0x00,,
0.026057916666667,0x00,,
0.026096958333333,0x1E,,
0.026136000000000,0x8A,,
0.026175041666667,0x08,,
0.026214083333333,0x04,,
0.026253125000000,0x02,,
0.026292166666667,0xA6,,
0.026331250000000,0x4E,,
0.041895875000000,0x55,,
0.041934916666667,0x33,,
0.041973958333333,0x04,,
0.042013000000000,0xC2,,
0.042052041666667,0x03,,
0.042091083333333,0x09,,
0.042130166666667,0x0F,,
0.042169208333333,0x01,,
0.042208250000000,0x00,,
0.042247291666667,0x03,,
0.042286333333333,0x42,,
0.042325375000000,0x00,,
0.042364458333333,0x00,,
0.042403500000000,0x00,,
0.042442541666667,0x00,,
0.042481583333333,0x00,,
0.042520625000000,0x00,,
0.042559666666667,0x00,,
0.042598750000000,0x00,,
0.042637791666667,0x00,,
0.042676833333333,0x00,,
0.042715875000000,0x00,,
0.042754916666667,0x00,,
0.042793958333333,0x00,,
0.042833000000000,0x00,,
0.042872083333333,0x00,,
0.042911125000000,0x00,,
0.042950166666667,0x00,,
0.042989208333333,0x00,,
0.043028250000000,0x80,,
0.043067291666667,0x3F,,
0.043106375000000,0x00,,
0.043161041666667,0x00,,
0.043200083333333,0x00,,
0.043239125000000,0x00,,
0.043278166666667,0x00,,
0.043317208333333,0x00,,
0.043356250000000,0x00,,
0.043395333333333,0x00,,
0.043434375000000,0x00,,
0.043473416666667,0x00,,
0.043512458333333,0x00,,
0.043551500000000,0x00,,
0.043590541666667,0x00,,
0.043629625000000,0x00,,
0.043668666666667,0x00,,
0.043707708333333,0x00,,
0.043746750000000,0x00,,
0.043785791666667,0x00,,
0.043824833333333,0xDF,,
0.043863916666667,0x1B,,
0.061892458333333,0x55,,
0.061931500000000,0x33,,
0.061970583333333,0x04,,
0.062009625000000,0xC2,,
0.062048666666667,0x03,,
0.062087708333333,0x09,,
0.062126750000000,0x10,,
0.062165791666667,0x01,,
0.062204833333333,0x00,,
0.062243916666667,0x03,,
0.062282958333333,0x42,,
0.062322000000000,0x00,,
0.062361041666667,0x00,,
0.062400083333333,0x00,,
0.062439125000000,0x00,,
0.062478208333333,0x00,,
0.062517250000000,0x00,,
0.062556291666667,0x00,,
0.062595333333333,0x00,,
0.062634375000000,0x00,,
0.062673416666667,0x00,,
0.062712500000000,0x00,,
0.062751541666667,0x00,,
0.062790583333333,0x00,,
0.062829625000000,0x00,,
0.062868666666667,0x00,,
0.062907708333333,0x00,,
0.062946791666667,0x00,,
0.062985833333333,0x00,,
0.063024875000000,0x80,,
0.063063916666667,0x3F,,
0.063102958333333,0x00,,
0.063149833333333,0x00,,
0.063188875000000,0x00,,
0.063227916666667,0x00,,
0.063266958333333,0x00,,
0.063306000000000,0x00,,
0.063345083333333,0x00,,
0.063384125000000,0x00,,
0.063423166666667,0x00,,
0.063462208333333,0x00,,
0.063501250000000,0x00,,
0.063540291666667,0x00,,
0.063579333333333,0x00,,
0.063618416666667,0x00,,
0.063657458333333,0x00,,
0.063696500000000,0x00,,
0.063735541666667,0x00,,
0.063774583333333,0x00,,
0.063813625000000,0xA7,,
0.063852708333333,0xB6,,
0.081892958333333,0x55,,
0.081932041666667,0x33,,
0.081971083333333,0x04,,
0.082010125000000,0xC2,,
0.082049166666667,0x03,,
0.082088208333333,0x09,,
0.082127250000000,0x11,,
0.082166333333333,0x01,,
0.082205375000000,0x00,,
0.082244416666667,0x03,,
0.082283458333333,0x42,,
0.082322500000000,0x00,,
0.082361541666667,0x00,,
0.082400625000000,0x00,,
0.082439666666667,0x00,,
0.082478708333333,0x00,,
0.082517750000000,0x00,,
0.082556791666667,0x00,,
0.082595833333333,0x00,,
0.082634875000000,0x00,,
0.082673958333333,0x00,,
0.082713000000000,0x00,,
0.082752041666667,0x00,,
0.082791083333333,0x00,,
0.082830125000000,0x00,,
0.082869166666667,0x00,,
0.082908250000000,0x00,,
0.082947291666667,0x00,,
0.082986333333333,0x00,,
0.083025375000000,0x80,,
0.083064416666667,0x3F,,
0.083103458333333,0x00,,
0.083150333333333,0x00,,
0.083189375000000,0x00,,
0.083228416666667,0x00,,
0.083267458333333,0x00,,
0.083306541666667,0x00,,
0.083345583333333,0x00,,
0.083384625000000,0x00,,
0.083423666666667,0x00,,
0.083462708333333,0x00,,
0.083501750000000,0x00,,
0.083540833333333,0x00,,
0.083579875000000,0x00,,
0.083618916666667,0x00,,
0.083657958333333,0x00,,
0.083697000000000,0x00,,
0.083736041666667,0x00,,
0.083775125000000,0x00,,
0.083814166666667,0x63,,
0.083853208333333,0xD9,,
0.101920833333333,0x55,,
0.101959875000000,0x33,,
0.101998916666667,0x04,,
0.102037958333333,0xC2,,
0.102077000000000,0x03,,
0.102116083333333,0x09,,
0.102155125000000,0x12,,
0.102194166666667,0x01,,
0.102233208333333,0x00,,
0.102272250000000,0x03,,
0.102311291666667,0x42,,
0.102350375000000,0x00,,
0.102389416666667,0x00,,
0.102428458333333,0x00,,
0.102467500000000,0x00,,
0.102506541666667,0x00,,
0.102545583333333,0x00,,
0.102584625000000,0x00,,
0.102623708333333,0x00,,
0.102662750000000,0x00,,
0.102701791666667,0x00,,
0.102740833333333,0x00,,
0.102779875000000,0x00,,
0.102818916666667,0x00,,
0.102858000000000,0x00,,
0.102897041666667,0x00,,
0.102936083333333,0x00,,
0.102975125000000,0x00,,
0.103014166666667,0x00,,
0.103053208333333,0x80,,
0.103092250000000,0x3F,,
0.103131333333333,0x00,,
0.103178166666667,0x00,,
0.103217208333333,0x00,,
0.103256291666667,0x00,,
0.103295333333333,0x00,,
0.103334375000000,0x00,,
0.103373416666667,0x00,,
0.103412458333333,0x00,,
0.103451500000000,0x00,,
0.103490541666667,0x00,,
0.103529625000000,0x00,,
0.103568666666667,0x00,,
0.103607708333333,0x00,,
0.103646750000000,0x00,,
0.103685791666667,0x00,,
0.103724833333333,0x00,,
0.103763916666667,0x00,,
0.103802958333333,0x00,,
0.103842000000000,0x2F,,
0.103881041666667,0x69,,
0.103920083333333,0x55,,
0.103959125000000,0x0E,,
0.103998208333333,0x04,,
0.104037250000000,0x66,,
0.104076291666667,0x03,,
0.104115333333333,0x02,,
0.104154375000000,0x11,,
0.104193416666667,0x00,,
0.104232458333333,0x00,,
0.104271541666667,0x03,,
0.104310583333333,0x32,,
0.104349625000000,0x27,,
0.104388666666667,0xBF,,
0.104435541666667,0x95,,
0.121901791666667,0x55,,
0.121940875000000,0x33,,
0.121979916666667,0x04,,
0.122018958333333,0xC2,,
0.122058000000000,0x03,,
0.122097041666667,0x09,,
0.122136083333333,0x13,,
0.122175166666667,0x01,,
0.122214208333333,0x00,,
0.122253250000000,0x03,,
0.122292291666667,0x42,,
0.122331333333333,0x00,,
0.122370375000000,0x00,,
0.122409416666667,0x00,,
0.122448500000000,0x00,,
0.122487541666667,0x00,,
0.122526583333333,0x00,,
0.122565625000000,0x00,,
0.122604666666667,0x00,,
0.122643708333333,0x00,,
0.122682791666667,0x00,,
0.122721833333333,0x00,,
0.122760875000000,0x00,,
0.122799916666667,0x00,,
0.122838958333333,0x00,,
0.122878000000000,0x00,,
0.122917041666667,0x00,,
0.122956125000000,0x00,,
0.122995166666667,0x00,,
0.123034208333333,0x80,,
0.123073250000000,0x3F,,
0.123112291666667,0x00,,
0.123159166666667,0x00,,
0.123198208333333,0x00,,
0.123237250000000,0x00,,
0.123276291666667,0x00,,
0.123315333333333,0x00,,
0.123354416666667,0x00,,
0.123393458333333,0x00,,
0.123432500000000,0x00,,
0.123471541666667,0x00,,
0.123510583333333,0x00,,
0.123549625000000,0x00,,
0.123588708333333,0x00,,
0.123627750000000,0x00,,
0.123666791666667,0x00,,
0.123705833333333,0x00,,
0.123744875000000,0x00,,
0.123783916666667,0x00,,
0.123823000000000,0xEB,,
0.123862041666667,0x06,,
0.123901083333333,0x55,,
0.123940125000000,0x3F,,
0.123979166666667,0x04,,
0.124018208333333,0x8F,,
0.124057291666667,0x03,,
0.124096333333333,0x09,,
0.124135375000000,0x55,,
0.124174416666667,0x00,,
0.124213458333333,0x00,,
0.124252500000000,0x03,,
0.124291541666667,0x43,,
0.124330625000000,0x00,,
0.124369666666667,0x00,,
0.124416500000000,0x00,,
0.124455583333333,0x00,,
0.124494625000000,0x00,,
0.124533666666667,0x00,,
0.124572708333333,0x00,,
0.124611750000000,0x00,,
0.124650791666667,0x00,,
0.124689833333333,0x00,,
0.124728916666667,0x00,,
0.124767958333333,0x00,,
0.124807000000000,0x00,,
0.124846041666667,0x00,,
0.124885083333333,0x00,,
0.124924125000000,0x00,,
0.124963208333333,0x00,,
0.125002250000000,0x00,,
0.125041291666667,0x00,,
0.125080333333333,0x00,,
0.125119375000000,0x00,,
0.125158416666667,0x00,,
0.125197458333333,0x00,,
0.125236541666667,0x00,,
0.125275583333333,0x00,,
0.125314625000000,0x00,,
0.125353666666667,0x00,,
0.125392708333333,0x00,,
0.125431750000000,0x00,,
0.125470833333333,0x00,,
0.125509875000000,0x81,,
0.125548916666667,0x00,,
0.125587958333333,0x01,,
0.125627000000000,0x60,,
0.125673875000000,0x80,,
0.125712916666667,0x00,,
0.125751958333333,0x00,,
0.125791000000000,0x00,,
0.125830041666667,0x00,,
0.125869125000000,0x00,,
0.125908166666667,0x1C,,
0.125947208333333,0x00,,
0.125986250000000,0x00,,
0.126025291666667,0x00,,
0.126064333333333,0x00,,
0.126103416666667,0x1E,,
0.126142458333333,0x8A,,
0.126181500000000,0x08,,
0.126220541666667,0x04,,
0.126259583333333,0x02,,
0.126298625000000,0xB3,,
0.126337708333333,0x81,,
0.141894500000000,0x55,,
0.141933541666667,0x33,,
0.141972625000000,0x04,,
0.142011666666667,0xC2,,
0.142050708333333,0x03,,
0.142089750000000,0x09,,
0.142128791666667,0x14,,
0.142167833333333,0x01,,
0.142206875000000,0x00,,
0.142245958333333,0x03,,
0.142285000000000,0x42,,
0.142324041666667,0x00,,
0.142363083333333,0x00,,
0.142402125000000,0x00,,
0.142441166666667,0x00,,
0.142480250000000,0x00,,
0.142519291666667,0x00,,
0.142558333333333,0x00,,
0.142597375000000,0x00,,
0.142636416666667,0x00,,
0.142675458333333,0x00,,
0.142714541666667,0x00,,
0.142753583333333,0x00,,
0.142792625000000,0x00,,
0.142831666666667,0x00,,
0.142870708333333,0x00,,
0.142909750000000,0x00,,
0.142948791666667,0x00,,
0.142987875000000,0x00,,
0.143026916666667,0x80,,
0.143065958333333,0x3F,,
0.143105000000000,0x00,,
0.143151875000000,0x00,,
0.143190916666667,0x00,,
0.143229958333333,0x00,,
0.143269000000000,0x00,,
0.143308041666667,0x00,,
0.143347083333333,0x00,,
0.143386166666667,0x00,,
0.143425208333333,0x00,,
0.143464250000000,0x00,,
0.143503291666667,0x00,,
0.143542333333333,0x00,,
0.143581375000000,0x00,,
0.143620458333333,0x00,,
0.143659500000000,0x00,,
0.143698541666667,0x00,,
0.143737583333333,0x00,,
0.143776625000000,0x00,,
0.143815666666667,0xA6,,
0.143854708333333,0x01,,
0.143893791666667,0x55,,
0.143932833333333,0x11,,
0.143971875000000,0x04,,
0.144010916666667,0x92,,
0.144049958333333,0x0B,,
0.144089000000000,0x02,,
0.144128083333333,0x09,,
0.144167125000000,0x00,,
0.144206166666667,0x00,,
0.144245208333333,0x00,,
0.144284250000000,0xF1,,
0.144323291666667,0x00,,
0.144362375000000,0x00,,
0.144409208333333,0x00,,
0.144448250000000,0x80,,
0.144487291666667,0xA5,,
0.144526375000000,0x16,,
0.161895000000000,0x55,,
0.161934083333333,0x33,,
0.161973125000000,0x04,,
0.162012166666667,0xC2,,
0.162051208333333,0x03,,
0.162090250000000,0x09,,
0.162129291666667,0x15,,
0.162168333333333,0x01,,
0.162207416666667,0x00,,
0.162246458333333,0x03,,
0.162285500000000,0x42,,
0.162324541666667,0x00,,
0.162363583333333,0x00,,
0.162402666666667,0x00,,
0.162441708333333,0x00,,
0.162480750000000,0x00,,
0.162519791666667,0x00,,
0.162558833333333,0x00,,
0.162597875000000,0x00,,
0.162636916666667,0x00,,
0.162676000000000,0x00,,
0.162715041666667,0x00,,
0.162754083333333,0x00,,
0.162793125000000,0x00,,
0.162832166666667,0x00,,
0.162871208333333,0x00,,
0.162910250000000,0x00,,
0.162949333333333,0x00,,
0.162988375000000,0x00,,
0.163027416666667,0x80,,
0.163066458333333,0x3F,,
0.163105500000000,0x00,,
0.163152375000000,0x00,,
0.163191416666667,0x00,,
0.163230458333333,0x00,,
0.163269500000000,0x00,,
0.163308583333333,0x00,,
0.163347625000000,0x00,,
0.163386666666667,0x00,,
0.163425708333333,0x00,,
0.163464750000000,0x00,,
0.163503791666667,0x00,,
0.163542833333333,0x00,,
0.163581916666667,0x00,,
0.163620958333333,0x00,,
0.163660000000000,0x00,,
0.163699041666667,0x00,,
0.163738083333333,0x00,,
0.163777125000000,0x00,,
0.163816208333333,0x62,,
0.163855250000000,0x6E,,
0.181895541666667,0x55,,
0.181934583333333,0x33,,
0.181973625000000,0x04,,
0.182012666666667,0xC2,,
0.182051708333333,0x03,,
0.182090750000000,0x09,,
0.182129833333333,0x16,,
0.182168875000000,0x01,,
0.182207916666667,0x00,,
0.182246958333333,0x03,,
0.182286000000000,0x42,,
0.182325041666667,0x00,,
0.182364125000000,0x00,,
0.182403166666667,0x00,,
0.182442208333333,0x00,,
0.182481250000000,0x00,,
0.182520291666667,0x00,,
0.182559333333333,0x00,,
0.182598375000000,0x00,,
0.182637458333333,0x00,,
0.182676500000000,0x00,,
0.182715541666667,0x00,,
0.182754583333333,0x00,,
0.182793625000000,0x00,,
0.182832666666667,0x00,,
0.182871750000000,0x00,,
0.182910791666667,0x00,,
0.182949833333333,0x00,,
0.182988875000000,0x00,,
0.183027916666667,0x80,,
0.183066958333333,0x3F,,
0.183106041666667,0x00,,
0.183152875000000,0x00,,
0.183191916666667,0x00,,
0.183230958333333,0x00,,
0.183270041666667,0x00,,
0.183309083333333,0x00,,
0.183348125000000,0x00,,
0.183387166666667,0x00,,
0.183426208333333,0x00,,
0.183465250000000,0x00,,
0.183504333333333,0x00,,
0.183543375000000,0x00,,
0.183582416666667,0x00,,
0.183621458333333,0x00,,
0.183660500000000,0x00,,
0.183699541666667,0x00,,
0.183738625000000,0x00,,
0.183777666666667,0x00,,
0.183816708333333,0x2E,,
0.183855750000000,0xDE,,
0.201896041666667,0x55,,
0.201935083333333,0x33,,
0.201974125000000,0x04,,
0.202013166666667,0xC2,,
0.202052250000000,0x03,,
0.202091291666667,0x09,,
0.202130333333333,0x17,,
0.202169375000000,0x01,,
0.202208416666667,0x00,,
0.202247458333333,0x03,,
0.202286500000000,0x42,,
0.202325583333333,0x00,,
0.202364625000000,0x00,,
0.202403666666667,0x00,,
0.202442708333333,0x00,,
0.202481750000000,0x00,,
0.202520791666667,0x00,,
0.202559875000000,0x00,,
0.202598916666667,0x00,,
0.202637958333333,0x00,,
0.202677000000000,0x00,,
0.202716041666667,0x00,,
0.202755083333333,0x00,,
0.202794166666667,0x00,,
0.202833208333333,0x00,,
0.202872250000000,0x00,,
0.202911291666667,0x00,,
0.202950333333333,0x00,,
0.202989375000000,0x00,,
0.203028416666667,0x80,,
0.203067500000000,0x3F,,
0.203106541666667,0x00,,
0.203153375000000,0x00,,
0.203192458333333,0x00,,
0.203231500000000,0x00,,
0.203270541666667,0x00,,
0.203309583333333,0x00,,
0.203348625000000,0x00,,
0.203387666666667,0x00,,
0.203426708333333,0x00,,
0.203465791666667,0x00,,
0.203504833333333,0x00,,
0.203543875000000,0x00,,
0.203582916666667,0x00,,
0.203621958333333,0x00,,
0.203661000000000,0x00,,
0.203700083333333,0x00,,
0.203739125000000,0x00,,
0.203778166666667,0x00,,
0.203817208333333,0xEA,,
0.203856250000000,0xB1,,
0.221896541666667,0x55,,
0.221935583333333,0x33,,
0.221974625000000,0x04,,
0.222013708333333,0xC2,,
0.222052750000000,0x03,,
0.222091791666667,0x09,,
0.222130833333333,0x18,,
0.222169875000000,0x01,,
0.222208916666667,0x00,,
0.222248000000000,0x03,,
0.222287041666667,0x42,,
0.222326083333333,0x00,,
0.222365125000000,0x00,,
0.222404166666667,0x00,,
0.222443208333333,0x00,,
0.222482291666667,0x00,,
0.222521333333333,0x00,,
0.222560375000000,0x00,,
0.222599416666667,0x00,,
0.222638458333333,0x00,,
0.222677500000000,0x00,,
0.222716541666667,0x00,,
0.222755625000000,0x00,,
0.222794666666667,0x00,,
0.222833708333333,0x00,,
0.222872750000000,0x00,,
0.222911791666667,0x00,,
0.222950833333333,0x00,,
0.222989916666667,0x00,,
0.223028958333333,0x80,,
0.223068000000000,0x3F,,
0.223107041666667,0x00,,
0.223153916666667,0x00,,
0.223192958333333,0x00,,
0.223232000000000,0x00,,
0.223271041666667,0x00,,
0.223310083333333,0x00,,
0.223349125000000,0x00,,
0.223388208333333,0x00,,
0.223427250000000,0x00,,
0.223466291666667,0x00,,
0.223505333333333,0x00,,
0.223544375000000,0x00,,
0.223583416666667,0x00,,
0.223622500000000,0x00,,
0.223661541666667,0x00,,
0.223700583333333,0x00,,
0.223739625000000,0x00,,
0.223778666666667,0x00,,
0.223817708333333,0xB4,,
0.223856791666667,0xD0,,
0.223895833333333,0x55,,
0.223934875000000,0x3F,,
0.223973916666667,0x04,,
0.224020791666667,0x8F,,
0.224059833333333,0x03,,
0.224098875000000,0x09,,
0.224137916666667,0x56,,
0.224176958333333,0x00,,
0.224216000000000,0x00,,
0.224255041666667,0x03,,
0.224294125000000,0x43,,
0.224333166666667,0x00,,
0.224372208333333,0x00,,
0.224411250000000,0x00,,
0.224450291666667,0x00,,
0.224489333333333,0x00,,
0.224528416666667,0x00,,
0.224567458333333,0x00,,
0.224606500000000,0x00,,
0.224645541666667,0x00,,
0.224684583333333,0x00,,
0.224723625000000,0x00,,
0.224762666666667,0x00,,
0.224801750000000,0x00,,
0.224840791666667,0x00,,
0.224879833333333,0x00,,
0.224918875000000,0x00,,
0.224957916666667,0x00,,
0.224996958333333,0x00,,
