Time [s],Packet,Type,Identifier,Control,Data,CRC,ACK
0.009886291666667,0,DATA,0x5D5,0x1,0xC6,,
0.011909000000000,1,DATA,0x1EA4C63D,0x4,0x31 0x98 0x43 0x08,0x2108,NAK
0.049863916666667,2,DATA,0x555,0x1,0xC6,,
0.069864458333333,3,DATA,0x5D5,0x1,0xC6,0x11E4,ACK
0.089861083333333,4,DATA,0x5D5,0x1,0xC6,0x19E4,ACK
0.109861625000000,5,REMOTE,0x1EA87188,0x9,,0x0623,ACK
0.111860875000000,6,DATA,0x575,0xC,0xC6 0x25 0x68 0x63 0x30 0x86 0x10 0x84,0x1084,ACK
0.131861416666667,7,DATA,0x5B5,0xD,0xC4 0x33 0xC8 0x62 0x30 0x86 0x10 0x84,0x10DC,ACK
0.149890000000000,8,DATA,0x575,0x1,0xC6,0x15E4,ACK
0.169863208333333,9,DATA,0x5D5,0x1,0xC6,0x1DE4,ACK
0.189863750000000,10,REMOTE,0x1EA8718A,0x9,,0x0623,ACK
0.191863000000000,11,DATA,0x515,0xD,0xC4 0x3D 0x88 0x63 0x10 0x86 0x10 0x84,0x10C4,NAK
0.192683041666667,12,REMOTE,0x652,0xC,,0x21EC,NAK
0.209864291666667,13,REMOTE,0x1EA8718E,0x9,,0x0623,ACK
0.211863541666667,14,DATA,0x17EB318D,0xD,0x0C 0x66 0x10 0xC2 0x10 0x84 0x21 0x08,0x2108,NAK
0.231864083333333,15,DATA,0x795,0xE,0xC4 0x33 0xC8 0x72 0x97 0xCC 0x67 0xD2,0x6AB0,ACK
0.232926166666667,16,DATA,0x715,0x2,0xA4 0xB1,0x1421,ACK
0.251864625000000,17,REMOTE,0x1E28F10C,0x9,,0x0637,ACK
0.269865875000000,18,REMOTE,0x1EA87188,0x9,,0x0623,ACK
0.271865125000000,19,DATA,0x555,0x2,0xC4 0x33,0x6421,ACK
0.289889833333333,20,REMOTE,0x1FA8718C,0x9,,0x0623,ACK
0.291889083333333,21,DATA,0x56D,0x9,0xC6 0x3B 0xC8 0x62 0xB0 0x86 0x10 0x84,0x30CC,ACK
0.293779041666667,22,DATA,0x1297109C,0x0,,0x625C,NAK
0.309866916666667,23,DATA,0x575,0x1,0xC6,0x15E4,ACK
0.369868541666667,24,REMOTE,0x1EA8718E,0x9,,0x0623,ACK
0.389869041666667,25,DATA,0x575,0x1,0xC6,0x13E8,NAK
0.409869583333333,26,DATA,0x5D5,0x1,0xC6,0x1BE8,NAK
0.489871708333333,27,DATA,0x5D5,0x1,0xC6,,
0.509868333333333,28,DATA,0x5D5,0x1,0xC6,0x17C8,NAK
0.530150000000000,29,REMOTE,0x500,0x6,,0x0842,ACK
0.549869416666667,30,REMOTE,0x1EA87189,0xA,,0x0C46,ACK
0.569897250000000,31,DATA,0x575,0x1,0xC6,0x1BE8,NAK
0.650153208333333,32,DATA,0x04306108,0x1,0x08,0x2108,NAK
0.669872583333333,33,DATA,0x555,0x1,0xC6,0x17C8,NAK
0.690154250000000,34,REMOTE,0x500,0x6,,0x0842,ACK
0.709901000000000,35,DATA,0x1EA87188,0x9,0x0C 0x46 0x10 0x84 0x21 0x08 0x42 0x10,0x4210,ACK
0.711900250000000,36,DATA,0x575,0xC,0xC6 0x2D 0x68 0x63 0x30 0x86 0x10 0x84,0x1084,ACK
0.791875041666667,37,REMOTE,0x1529710D,0x1,,0x0625,NAK
0.831876125000000,38,REMOTE,0x1EA8B108,0x9,,0x0437,ACK
0.849900791666667,39,DATA,0x555,0x1,0xC6,0x1CA4,ACK
0.869877916666667,40,DATA,0x1EA87188,0x9,0x0C 0x46 0x10 0x84 0x21 0x08,,
1.131903625000000,41,REMOTE,0x1FAB7108,0x9,,0x0623,ACK
1.149881458333333,42,DATA,0x1EA8718B,0x9,0x0C 0x46 0x10 0x84 0x21 0x08 0x42 0x10,,
1.189882500000000,43,DATA,0x5D5,0x1,0xC6,0x12A4,ACK
1.231882833333333,44,DATA,0x595,0xE,0xC4 0x23 0xC8 0x72 0x97 0xCC 0x67 0xD2,0x6AB0,ACK
1.232944958333333,45,DATA,0x795,0x2,0xA4 0xA9,0x1421,ACK
1.249884083333333,46,DATA,0x575,0x1,,,
1.269904166666667,47,DATA,0x1EA8718B,0x9,0x0C 0x46 0x10 0x84 0x21 0x08 0x42 0x10,0x4210,ACK
1.769890083333333,48,DATA,0x05F8718F,0x9,0x0C 0x46 0x10 0x84 0x21 0x08 0x42 0x10,0x4210,ACK
1.789890625000000,49,DATA,0x575,0x1,0xC6,0x16A4,ACK
1.791889916666667,50,REMOTE,0x1F29710F,0x0,,0x1897,ACK
1.809891166666667,51,DATA,0x5D5,0x1,0xC6,0x1EA4,ACK
1.813936583333333,52,DATA,0x084,0x0,,0x5A10,ACK
1.829919041666667,53,DATA,0x1EA87189,0x9,0x0C 0x46,,
1.849892208333333,54,DATA,0x05F8718D,0x9,0x0C 0x46 0x10 0x84 0x21 0x08,,
1.889893291666667,55,DATA,0x5D5,0x1,0xC6,0x1AA4,ACK
1.909893833333333,56,DATA,0x1EA8718B,0x9,0x0C 0x46 0x10 0x84 0x21 0x08 0x42 0x10,0x4210,ACK
1.929894375000000,57,DATA,0x1EA8718F,0x9,0x0C 0x46 0x10 0x84 0x21 0x08 0x42 0x10,0x4210,ACK
1.949894875000000,58,DATA,0x575,0x1,0xC6,0x16A4,ACK
1.969922750000000,59,DATA,0x5D5,0x1,0xC6,0x1EA4,ACK
1.989895958333333,60,REMOTE,0x1FA87188,0x9,,0x0623,ACK
2.009896500000000,61,REMOTE,0x1EA8718C,0x9,,0x0623,ACK
2.011895750000000,62,DATA,0x575,0xC,0xC6 0x31 0x68 0x63 0x30 0x86 0x10 0x84,0x1084,ACK
2.049897541666667,63,DATA,0x555,0x1,0xC6,0x19A4,ACK
2.069898083333333,64,REMOTE,0x1FA8718A,0x9,,0x0623,ACK
2.089898625000000,65,REMOTE,0x1EA8718E,0x9,,0x0623,ACK
2.109918666666667,66,REMOTE,0x1FA8718A,0x9,,0x0623,ACK
2.111917916666667,67,DATA,0x05FB318A,0xD,0x0C 0x66 0x10 0xC2 0x10 0x84 0x21 0x08,0x2108,NAK
2.131898958333333,68,REMOTE,0x1FAB710C,0x9,,0x0623,ACK
2.149900208333333,69,REMOTE,0x1FA87188,0x9,,0x0623,ACK
2.169896833333333,70,REMOTE,0x1FA8718C,0x9,,0x0623,ACK
2.189897375000000,71,REMOTE,0x1EA87188,0x9,,0x0623,ACK
2.231897708333333,72,REMOTE,0x1EABB10C,0x9,,0x0729,NAK
2.232959791666667,73,DATA,0x715,0x2,0xA4 0xB1,0x1421,ACK
2.233818875000000,74,DATA,0x652,0xC,0x63 0xBC 0x86 0x27 0x88 0x6E 0xDF,,
2.251921666666667,75,REMOTE,0x1E28F10C,0x9,,0x0637,ACK
2.269899500000000,76,REMOTE,0x1EA8718A,0x9,,0x0623,ACK
2.271898750000000,77,DATA,0x555,0x2,0xC4 0x33,0x6421,ACK
2.289900000000000,78,REMOTE,0x05F8718E,0x9,,0x0623,ACK
2.291899291666667,79,DATA,0x5E5,0x9,0xC6 0x3B 0xC8 0x62 0xB0 0x86 0x10 0x84,0x30CC,ACK
2.293773625000000,80,DATA,0x14A5C42F,0x4,0x31 0x2E 0x7A 0x3F,,
2.509905875000000,81,REMOTE,0x1EA87189,0x9,,0x0623,ACK
2.609904625000000,82,REMOTE,0x1FA8718F,0x2,,0x0C46,ACK
2.629905166666667,83,REMOTE,0x1EA87188,0x9,,0x0623,ACK
2.649905666666667,84,DATA,0x575,0x1,0xC6,0x19A4,ACK
2.669933541666667,85,DATA,0x555,0x1,0xC6,0x11A4,ACK
2.689906750000000,86,REMOTE,0x1FA8718C,0x9,,0x0623,ACK
2.709907291666667,87,REMOTE,0x1EA8718A,0x9,,0x0623,ACK
2.711906541666667,88,DATA,0x575,0xC,0xC6 0x25 0x68 0x63 0x30 0x86 0x10 0x84,0x1084,ACK
2.749908333333333,89,DATA,0x555,0x1,0xC6,0x15A4,ACK
2.769908875000000,90,REMOTE,0x1EA8718E,0x9,,0x0623,ACK
2.789909416666667,91,REMOTE,0x1EA87188,0x9,,0x0623,ACK
2.791908666666667,92,DATA,0x525,0x5,0xC4 0x3E 0x01 0x89 0x72,,
2.831909750000000,93,REMOTE,0x1EA8B10A,0x9,,0x0437,ACK
2.849911000000000,94,REMOTE,0x1FA8718C,0x9,,0x0623,ACK
2.869911541666667,95,REMOTE,0x1EA8718A,0x9,,0x0623,ACK
2.889912041666667,96,REMOTE,0x15F8718E,0x9,,0x0623,ACK
2.909912583333333,97,DATA,0x555,0x1,0xC6,0x15A4,ACK
2.969910291666667,98,REMOTE,0x1EA8718D,0x9,,0x0623,ACK
3.131913791666667,99,REMOTE,0x55A,0xE,,0x710A,NAK
3.149915041666667,100,REMOTE,0x05F87189,0x9,,0x0623,ACK
3.169915583333333,101,DATA,0x555,0x1,0xC6,0x1BA4,ACK
3.231939875000000,102,DATA,0x515,0xE,0xC4 0x2B 0xC8 0x72 0x97 0xA6 0x33 0xE9,0x3558,NAK
3.233002000000000,103,DATA,0x795,0x2,0xA4 0xA9,0x1421,ACK
3.233853250000000,104,DATA,0x5A9,0x6,0x31 0x1E 0x43 0x13 0xC4 0x39,,
3.251917000000000,105,REMOTE,0x1E28F10A,0x9,,0x0637,ACK
3.269918250000000,106,DATA,0x5D5,0x1,0xC6,0x10A4,ACK
3.271917541666667,107,REMOTE,0x1EA8B10A,0x9,,0x0437,ACK
3.289918791666667,108,DATA,0x1EA8718C,0x9,0x0C 0x46 0x10 0x84 0x21 0x08,,
3.293808000000000,109,DATA,0x1297109C,0x0,,0x625C,NAK
3.449919125000000,110,DATA,0x555,0x1,0xC6,0x18A4,ACK
3.469919666666667,111,DATA,0x1FA87188,0x9,0x0C 0x46 0x10 0x84 0x21 0x08 0x42 0x10,0x4210,ACK
3.489920208333333,112,DATA,0x1EA8718C,0x9,0x0C 0x46 0x10 0x84 0x21 0x08 0x42 0x10,0x4210,ACK
3.509948041666667,113,DATA,0x05F8718A,0x9,0x0C 0x46 0x10 0x84 0x21 0x08 0x42 0x10,0x4210,ACK
3.529921250000000,114,DATA,0x555,0x1,0xC6,0x1CA4,ACK
3.549921791666667,115,DATA,0x1FA8718A,0x9,0x0C 0x46 0x10 0x84 0x21 0x08 0x42 0x10,0x4210,ACK
3.569922333333333,116,DATA,0x1EA8718E,0x9,0x0C 0x46 0x10 0x84 0x21 0x08 0x42 0x10,0x4210,ACK
3.589922833333334,117,DATA,0x05F87189,0x9,0x0C 0x46 0x10 0x84 0x21 0x08 0x42 0x10,0x4210,ACK
3.649947875000000,118,DATA,0x5D5,0x1,0xC6,0x1AA4,ACK
3.689925500000000,119,DATA,0x555,0x1,0xC6,0x1EA4,ACK
3.729926583333333,120,DATA,0x1EA8718F,0x9,0x0C 0x46 0x10 0x84 0x21 0x08 0x42 0x10,0x4210,ACK
3.749927083333333,121,DATA,0x05F87189,0x9,0x0C 0x46 0x10 0x84 0x21 0x08 0x42 0x10,0x4210,ACK
3.769927625000000,122,DATA,0x555,0x1,0xC6,0x1AA4,ACK
3.789951583333333,123,DATA,0x575,0x1,0xC6,0x12A4,ACK
3.791950875000000,124,REMOTE,0x1F29710D,0x1,,0x0625,NAK
3.809924791666667,125,DATA,0x5D5,0x1,0xC6,0x1AA4,ACK
3.831924583333334,126,DATA,0x555,0x2,0xC4 0x3B,0x6421,ACK
3.849925833333333,127,DATA,0x05F8718F,0x9,0x0C 0x46 0x10 0x84 0x21 0x08,,
3.889926916666667,128,DATA,0x5D5,0x1,0xC6,0x1EA4,ACK
4.009930083333333,129,DATA,0x05F8718E,0x9,0x0C 0x46 0x10 0x84 0x21 0x08 0x42 0x10,0x4210,ACK
4.029930625000000,130,DATA,0x575,0x1,0xC6,0x14A4,ACK
4.049931166666667,131,DATA,0x5D5,0x1,0xC6,0x1CA4,ACK
4.069955125000000,132,DATA,0x555,0x1,0xC6,0x10A4,ACK
4.089932250000000,133,DATA,0x1EA8718C,0x9,0x0C 0x46 0x10 0x84 0x21 0x08 0x42 0x10,0x4210,ACK
4.109932750000000,134,DATA,0x575,0x1,0xC6,0x10A4,ACK
4.131932583333334,135,REMOTE,0x1FAB710E,0x9,,0x0623,ACK
4.149933833333334,136,DATA,0x1EA8718A,0x9,0x0C 0x46 0x10 0x84 0x21 0x08 0x42 0x10,0x4210,ACK
4.169934375000000,137,DATA,0x1EA8718E,0x9,0x0C 0x46 0x10 0x84 0x21 0x08 0x42 0x10,0x4210,ACK
4.189934875000000,138,DATA,0x575,0x1,0xC6,0x14A4,ACK
4.209958833333333,139,DATA,0x15F8718E,0x9,0x0C 0x46 0x10 0x84 0x21 0x08 0x42 0x10,0x4210,ACK
4.231931333333334,140,REMOTE,0x1EABB10E,0x9,,0x0729,NAK
4.232993416666667,141,DATA,0x715,0x2,0xA4 0xB1,0x1421,ACK
4.251931833333333,142,DATA,0x16D,0x3,0xC4 0x3B 0xC8,0x31B8,NAK
4.269933125000000,143,DATA,0x1EA87189,0x9,0x0C 0x46 0x10 0x84 0x21 0x08 0x42 0x10,0x4210,ACK
4.271932375000000,144,DATA,0x555,0x2,0xC4 0x3B,0x6421,ACK
4.349962583333333,145,DATA,0x1EA8718B,0x9,0x0C 0x46 0x10 0x84 0x21 0x08 0x42 0x10,0x4210,ACK
4.369935750000000,146,DATA,0x15F8718F,0x9,0x0C 0x46 0x10 0x84 0x21 0x08 0x42 0x10,0x4210,ACK
4.389936291666666,147,DATA,0x555,0x1,0xC6,0x12A4,ACK
4.589937708333333,148,DATA,0x5D5,0x1,0xC6,0x11A4,ACK
4.609938250000000,149,REMOTE,0x1EA8718C,0x9,,0x0623,ACK
4.611937500000000,150,DATA,0x575,0xC,0xC6 0x3B 0x68 0x63 0x30 0x86 0x10 0x84,0x1084,ACK
4.791942291666667,151,DATA,0x525,0x5,0xC4 0x37 0x08 0x62 0x5C,,
4.831943375000000,152,REMOTE,0x1EA8B10A,0x9,,0x0437,ACK
4.849944625000000,153,REMOTE,0x1EA8718E,0x9,,0x0623,ACK
4.869945166666667,154,REMOTE,0x1EA87189,0x9,,0x0623,ACK
4.889945666666667,155,DATA,0x575,0x1,0xC6,0x1BA4,ACK
4.909965750000000,156,REMOTE,0x1EA87189,0x9,,0x0623,ACK
4.929946750000000,157,REMOTE,0x1FA8718D,0x9,,0x0623,ACK
4.969947791666667,158,DATA,0x575,0x1,0xC6,0x1F48,NAK
4.989948333333333,159,DATA,0x5D5,0x1,0xC6,0x17A4,ACK
