Time [s],Packet,Type,Identifier,Control,Data,CRC,ACK
0.126788958333333,0,DATA,0x05F8718B,0x9,0x0C 0x46 0x10 0x84 0x21 0x08 0x42 0x10,0x4210,ACK
0.146789500000000,1,DATA,0x555,0x1,0xC6,0x1EE4,ACK
0.166813458333333,2,DATA,0x575,0x1,0xC6,0x10E4,ACK
0.186794500000000,3,DATA,0x1EA8718C,0x9,0x0C 0x46 0x10 0x84 0x21 0x08 0x42 0x10,0x4210,ACK
0.188793750000000,4,DATA,0x17EB318C,0x7,0x0C 0x66 0x10 0xC2 0x10 0x84 0x21,0x0421,ACK
0.226791625000000,5,DATA,0x05F8718C,0x9,0x0C 0x46 0x10 0x84 0x21 0x08 0x42 0x10,0x4210,ACK
0.246792166666667,6,DATA,0x575,0x1,0xC6,0x14E4,ACK
0.266792708333333,7,DATA,0x5D5,0x1,0xC6,0x1CE4,ACK
0.368794666666667,8,REMOTE,0x1F29710C,0xD,,0x0625,NAK
0.386795916666667,9,DATA,0x1FA8718C,0x9,0x0C 0x46 0x10 0x84 0x21 0x08 0x42 0x10,0x4210,ACK
0.406796458333333,10,DATA,0x1EA8718A,0x9,0x0C 0x46 0x10 0x84 0x21 0x08 0x42 0x10,0x4210,ACK
0.408795708333333,11,DATA,0x555,0x2,0xC4 0x3D,0x4421,ACK
0.426797000000000,12,DATA,0x1EA8718E,0x9,0x0C 0x46 0x10 0x84 0x21 0x08,,
0.708799833333333,13,DATA,0x1FAB710F,0x1,0x0C,0x2308,NAK
0.726824500000000,14,DATA,0x575,0x1,0xC6,0x16E4,ACK
0.746805500000000,15,DATA,0x05F8718F,0x9,0x0C 0x46 0x10 0x84 0x21 0x08 0x42 0x10,0x4210,ACK
0.766802166666667,16,DATA,0x1EA8718B,0x9,0x0C 0x46 0x10 0x84 0x21 0x08 0x42 0x10,0x4210,ACK
0.786802666666667,17,DATA,0x15F8718F,0x9,0x0C 0x46 0x10 0x84 0x21 0x08 0x42 0x10,0x4210,ACK
0.848799666666667,18,DATA,0x1EA8B10F,0x1,0x08,0x370D,NAK
0.866828250000000,19,REMOTE,0x1FA8718C,0x9,,0x0623,ACK
0.868827500000000,20,DATA,0x16D,0x9,0xC6 0x35 0x88 0x62 0xB0 0x86 0x10 0x84,0x30CC,ACK
0.870701833333333,21,DATA,0x16A5C423,0x4,0x31 0x2E 0x66,,
0.926802500000000,22,REMOTE,0x15F8718A,0x9,,0x0623,ACK
0.946803041666667,23,DATA,0x555,0x1,0xC6,0x1DE4,ACK
0.966803583333333,24,DATA,0x5D5,0x1,0xC6,0x11E4,ACK
1.086806791666667,25,REMOTE,0x1FA8718A,0x9,,0x0623,ACK
1.106807333333333,26,REMOTE,0x1EA8718E,0x9,,0x0623,ACK
1.126807833333333,27,REMOTE,0x05F87189,0xA,,0x0C46,ACK
1.146827916666667,28,REMOTE,0x1FA8718D,0xA,,0x0C46,ACK
1.166812833333333,29,REMOTE,0x1FA87189,0xA,,0x0C46,ACK
1.186809458333333,30,REMOTE,0x1FA8718D,0xA,,0x0C46,ACK
1.188808708333333,31,DATA,0x05FB318F,0x7,0x0C 0x66 0x10 0xC2 0x10 0x84 0x21,0x0421,ACK
1.406811416666667,32,DATA,0x555,0x1,0xC6,0x17C8,NAK
1.408810708333333,33,DATA,0x1EA8B10B,0x1,0x08,0x3708,NAK
1.506814083333333,34,DATA,0x555,0x1,0xC6,0x19E4,ACK
1.546815166666667,35,REMOTE,0x1FA8718E,0x9,,0x0623,ACK
1.708842125000000,36,DATA,0x535,0xD,0xC4 0x2D 0x88 0x62 0x30 0x86 0x10 0x84,0x108E,ACK
1.726823875000000,37,REMOTE,0x1FA8718A,0x9,,0x0623,ACK
1.746816583333333,38,DATA,0x555,0x1,0xC6,0x1DE4,ACK
1.766817125000000,39,DATA,0x5D5,0x1,0xC6,0x13E8,NAK
1.768816416666667,40,DATA,0x1FAB710B,0x1,0x0C,0x3108,NAK
1.769652041666667,41,DATA,0x052A2168,0x1,0x8F,0x4021,ACK
1.786817666666667,42,REMOTE,0x1EA8718D,0xA,,0x0C46,ACK
1.788816916666667,43,DATA,0x05AB318D,0x7,0x0C 0x66 0x10 0xC2 0x10 0x84 0x21,0x0421,ACK
1.790816208333333,44,DATA,0x384,0x0,,0x42D0,ACK
1.791284791666667,45,DATA,0x1F2A710B,0x1,0x0C,0x2F90,ACK
1.806818208333333,46,REMOTE,0x1EA87189,0xA,,0x0C46,ACK
1.808817458333333,47,DATA,0x515,0xE,0xC4 0x2D 0x88 0x72 0x93 0x9F 0x67 0xD2,0x6AB0,ACK
1.809879583333333,48,REMOTE,0x0E5CA72B,0x5,,0x0421,ACK
1.810746458333333,49,DATA,0x4A4,0x8,0xC4 0xB1 0x0C 0x4F 0x10 0xF7 0x3F,,
1.828818000000000,50,DATA,0x5C5,0x3,0xC4 0x2D 0x88,0x31B8,NAK
1.846846583333333,51,DATA,0x575,0x1,0xC6,0x17C8,NAK
1.848845875000000,52,DATA,0x1FA8B10B,0x1,0x08,0x370D,NAK
2.106826208333333,53,DATA,0x1EA8718C,0x5,0x0C 0x46 0x10 0x84 0x21,0x0421,ACK
2.266850000000000,54,DATA,0x1FA8718C,0x5,0x0C 0x46 0x10 0x84 0x21,0x0421,ACK
2.286831000000000,55,DATA,0x5D5,0x1,0xC6,0x1094,ACK
2.408853000000000,56,DATA,0x555,0x2,0xC4 0x3D,0x4421,ACK
2.426834750000000,57,DATA,0x1EA8718D,0x5,0x0C 0x46 0x10 0x84 0x21,0x0421,ACK
2.446831375000000,58,DATA,0x1FA87189,0x5,0x0C 0x46 0x10 0x84 0x21,0x0421,ACK
2.466831916666667,59,DATA,0x1EA8718D,0x5,0x0C 0x46 0x10 0x84 0x21,0x0421,ACK
2.486832458333333,60,DATA,0x1EA8718B,0x5,0x0C 0x46 0x10 0x84 0x21,0x0421,ACK
2.626832250000000,61,DATA,0x05F8718D,0x5,0x0C 0x46 0x10 0x84 0x21,0x0421,ACK
2.646832791666667,62,DATA,0x575,0x1,0xC6,0x1694,ACK
2.666833333333333,63,DATA,0x555,0x1,0xC6,0x1E94,ACK
2.686861208333333,64,DATA,0x1FA8718B,0x5,0x0C 0x46 0x10 0x84 0x21,0x0421,ACK
2.688860458333334,65,DATA,0x05FB318A,0x7,0x0C 0x66 0x10 0xC2 0x10 0x84 0x21,0x0421,ACK
2.708837583333333,66,DATA,0x5B5,0xD,0xC4 0x3D 0x88 0x62 0x30 0x86 0x10 0x84,0x10F5,ACK
2.726834958333333,67,DATA,0x1EA87188,0x5,0x0C 0x46 0x10 0x84 0x21,0x0421,ACK
2.746835458333333,68,DATA,0x175,0x1,0xC6,0x1894,ACK
2.766836000000000,69,DATA,0x555,0x1,0xC6,0x1094,ACK
2.786836541666667,70,DATA,0x5D5,0x1,0xC6,0x1894,ACK
2.808836333333333,71,DATA,0x515,0xE,0xC4 0x3D 0x88 0x72 0x93 0xDF 0x67 0xD2,0x6AB0,ACK
2.809898458333334,72,REMOTE,0x1E5CBE57,0xA,,0x0842,ACK
2.828860291666667,73,DATA,0x16D,0x3,0xC4 0x3D 0x88,0x31B8,NAK
2.848841333333333,74,DATA,0x1EA8B10F,0x1,0x08,0x370D,NAK
2.866838666666667,75,DATA,0x555,0x1,0xC6,0x1C94,ACK
2.906839750000000,76,DATA,0x1FA8718C,0x5,0x0C 0x46 0x10 0x84 0x21,0x0421,ACK
2.926836375000000,77,DATA,0x1FA87188,0x5,0x0C 0x46 0x10 0x84 0x21,0x0421,ACK
2.966860875000000,78,DATA,0x1EA8718A,0x5,0x0C 0x46 0x10 0x84 0x21,0x0421,ACK
2.988845041666667,79,REMOTE,0x55A,0xE,,0x318E,NAK
3.006838500000000,80,DATA,0x555,0x1,0xC6,0x1494,ACK
3.026839041666667,81,DATA,0x5D5,0x1,0xC6,0x1C94,ACK
3.046839583333333,82,DATA,0x1EA87189,0x5,0x0C 0x46 0x10 0x84 0x21,0x0421,ACK
3.086840625000000,83,DATA,0x05F87189,0x5,0x0C 0x46 0x10 0x84 0x21,0x0421,ACK
3.326843125000000,84,DATA,0x05F8718B,0x5,0x0C 0x46 0x10 0x84 0x21,0x0421,ACK
3.346843666666667,85,DATA,0x555,0x1,0xC6,0x1E94,ACK
3.366844208333333,86,DATA,0x5D5,0x1,0xC6,0x1194,ACK
3.368843500000000,87,REMOTE,0x1F29710E,0xD,,0x0625,NAK
3.386872083333333,88,REMOTE,0x1FA8718C,0x5,,0x0623,ACK
3.408852375000000,89,DATA,0x1EA8B109,0x1,0x08,0x3708,NAK
3.426845791666667,90,REMOTE,0x05F8718C,0x5,,0x0623,ACK
3.446846333333333,91,DATA,0x575,0x1,0xC6,0x1594,ACK
3.466846875000000,92,DATA,0x5D5,0x1,0xC6,0x1D94,ACK
3.486847416666667,93,REMOTE,0x1FA8718A,0x5,,0x0623,ACK
3.488846666666667,94,DATA,0x05FB318A,0x7,0x0C 0x66 0x10 0xC2 0x10 0x84 0x21,0x0421,ACK
3.506847958333333,95,REMOTE,0x1EA8718E,0x5,,0x0623,ACK
3.546852916666666,96,DATA,0x5D5,0x1,0xC6,0x1994,ACK
3.566849541666667,97,DATA,0x555,0x1,0xC6,0x1194,ACK
3.586850083333333,98,REMOTE,0x1FA8718C,0x5,,0x0623,ACK
3.588849333333333,99,DATA,0x05FB318E,0x7,0x0C 0x66 0x10 0xC2 0x10 0x84 0x21,0x0421,ACK
3.706853291666667,100,REMOTE,0x1EA8718D,0x5,,0x0623,ACK
3.708852541666666,101,DATA,0x515,0xD,0xC4 0x25 0x88 0x62 0x30 0x86 0x10 0x84,0x10CD,ACK
3.726849916666667,102,REMOTE,0x1EA87189,0x5,,0x0623,ACK
3.746873875000000,103,REMOTE,0x1FA8718D,0x5,,0x0623,ACK
3.766850958333333,104,REMOTE,0x05F8718B,0x5,,0x0623,ACK
3.786851500000000,105,DATA,0x575,0x1,0xC6,0x1F28,NAK
3.808851333333333,106,DATA,0x1EABB109,0x1,0x0E,0x2939,NAK
3.809913416666667,107,REMOTE,0x045CA72B,0x5,,0x0421,ACK
3.828855750000000,108,DATA,0x545,0x3,0xC4 0x25 0x88,0x31B8,NAK
3.846853125000000,109,REMOTE,0x1EA87189,0x5,,0x0623,ACK
3.848852375000000,110,DATA,0x555,0x2,0xC4 0x25,0x4421,ACK
3.866853625000000,111,REMOTE,0x05F8718D,0x5,,0x0623,ACK
4.206858791666667,112,REMOTE,0x05F87188,0x5,,0x0623,ACK
4.246863791666667,113,REMOTE,0x1EA8718A,0x5,,0x0623,ACK
4.366863083333334,114,REMOTE,0x1FA87189,0x5,,0x0623,ACK
4.408863416666667,115,DATA,0x5D5,0x2,0xC4 0x35,0x4421,ACK
4.426864666666667,116,DATA,0x575,0x1,0xC6,0x1F28,NAK
4.446888625000000,117,REMOTE,0x05F8718B,0x5,,0x0623,ACK
4.466865750000000,118,DATA,0x5D5,0x1,0xC6,0x1F28,NAK
4.486866291666667,119,REMOTE,0x1EA87189,0x5,,0x0623,ACK
4.666871083333334,120,DATA,0x5D5,0x1,0xC6,0x1894,ACK
4.686867708333334,121,DATA,0x555,0x1,0xC6,0x1094,ACK
4.806874833333334,122,DATA,0x1EA87188,0x5,0x0C 0x46 0x10 0x84 0x21,0x0421,ACK
4.826871458333334,123,DATA,0x1EA8718C,0x5,0x0C 0x46 0x10 0x84 0x21,0x0421,ACK
4.828870708333334,124,DATA,0x565,0x3,0xC4 0x35 0x88,0x31B8,NAK
4.846872000000000,125,DATA,0x1EA87188,0x5,0x0C 0x46 0x10 0x84 0x21,0x0421,ACK
4.848871250000000,126,DATA,0x555,0x2,0xC4 0x35,0x4421,ACK
4.866895958333333,127,DATA,0x1EA8718C,0x5,0x0C 0x46 0x10 0x84 0x21,,
4.870746125000000,128,REMOTE,0x1F297109,0xD,,0x0625,NAK
4.886873041666667,129,DATA,0x575,0x1,0xC6,0x1494,ACK
4.926874125000000,130,DATA,0x1FA8718A,0x5,0x0C 0x46 0x10 0x84 0x21,0x0421,ACK
4.946878541666667,131,DATA,0x575,0x1,0xC6,0x1C94,ACK
4.966871291666667,132,DATA,0x1EA87189,0x5,0x0C 0x46 0x10 0x84 0x21,0x0421,ACK
4.986871833333334,133,DATA,0x1EA8718D,0x5,0x0C 0x46 0x10 0x84 0x21,0x0421,ACK
4.988871083333334,134,DATA,0x575,0xC,0xC6 0x35 0x38 0x63 0x30 0x86 0x10 0x84,0x1084,ACK
5.090884750000000,135,DATA,0x384,0x0,,0x42D0,ACK
5.106875000000000,136,DATA,0x05F8718F,0x5,0x0C 0x46 0x10,,
5.386878583333333,137,DATA,0x5D5,0x1,0xC6,0x1C94,ACK
5.408878375000000,138,DATA,0x155,0x2,0xC4 0x25,0x4421,ACK
5.426907000000000,139,DATA,0x1EA8718E,0x5,0x0C 0x46 0x10 0x84 0x21,,
5.486881250000000,140,DATA,0x5D5,0x1,0xC6,0x1094,ACK
5.506885708333333,141,DATA,0x1EA8718C,0x5,0x0C 0x46 0x10 0x84 0x21,0x0421,ACK
5.526882333333333,142,DATA,0x1EA8718A,0x5,0x0C 0x46 0x10 0x84 0x21,0x0421,ACK
5.546882833333333,143,DATA,0x05F8718E,0x5,0x0C 0x46 0x10 0x84 0x21,0x0421,ACK
5.566906833333333,144,DATA,0x1EA8718A,0x5,0x0C 0x46 0x10 0x84 0x21,0x0421,ACK
5.586883916666666,145,DATA,0x5D5,0x1,0xC6,0x1C94,ACK
5.646889416666666,146,DATA,0x555,0x1,0xC6,0x1294,ACK
5.666886041666666,147,DATA,0x575,0x1,0xC6,0x1A94,ACK
5.686886583333333,148,DATA,0x5D5,0x1,0xC6,0x1694,ACK
5.708909833333333,149,DATA,0x1FAB7109,0x1,0x0C,0x2308,NAK
5.726887666666666,150,DATA,0x1EA8718B,0x5,0x0C 0x46 0x10 0x84 0x21,0x0421,ACK
5.746888166666666,151,DATA,0x05F8718F,0x5,0x0C 0x46 0x10 0x84 0x21,0x0421,ACK
5.766888708333333,152,DATA,0x575,0x1,0xC6,0x1294,ACK
5.786893166666666,153,DATA,0x1EA8718D,0x5,0x0C 0x46 0x10 0x84 0x21,0x0421,ACK
5.806885875000000,154,DATA,0x555,0x1,0xC6,0x1294,ACK
5.808885166666666,155,DATA,0x1CABB109,0x1,0x0E,0x293D,NAK
5.809939458333333,156,REMOTE,0x1E5CA72B,0x5,,0x0421,ACK
5.828885666666666,157,DATA,0x16D,0x3,0xC4 0x25 0x88,0x31B8,NAK
5.846914291666667,158,DATA,0x1EA8718B,0x5,0x0C 0x46 0x10 0x84 0x21,0x0421,ACK
5.848913541666667,159,DATA,0x555,0x2,0xC4 0x25,0x4421,ACK
5.866887458333333,160,REMOTE,0x07C,0x7,,0x0C7A,NAK
5.868886750000000,161,DATA,0x5E5,0x9,0xC6 0x2D 0x88 0x62 0xB0 0x86 0x10 0x84,,
6.086893333333333,162,DATA,0x575,0x1,0xC6,0x1194,ACK
6.146894958333333,163,REMOTE,0x1EA8718C,0x5,,0x0623,ACK
6.166895500000000,164,REMOTE,0x1EA8718A,0x5,,0x0623,ACK
6.186892125000000,165,REMOTE,0x1EA8718E,0x5,,0x0623,ACK
6.206923875000000,166,DATA,0x555,0x1,0xC6,0x1594,ACK
6.226893166666667,167,DATA,0x555,0x1,0xC6,0x1D94,ACK
6.246893708333333,168,DATA,0x5D5,0x1,0xC6,0x1394,ACK
6.266894250000000,169,REMOTE,0x1EA8718D,0x5,,0x0623,ACK
6.286894791666667,170,REMOTE,0x1EA87189,0x5,,0x0623,ACK
6.368896166666667,171,DATA,0x525,0x5,0xC4 0x3E 0xD0 0xC4 0xB9,0x1F3F,
6.408897250000000,172,DATA,0x5D5,0x2,0xC4 0x35,0x4421,ACK
6.426898500000000,173,DATA,0x575,0x1,0xC6,0x1B94,ACK
6.446899041666667,174,DATA,0x5D5,0x1,0xC6,0x1394,ACK
6.466899583333333,175,REMOTE,0x1FA8718D,0x5,,0x0623,ACK
6.486927458333334,176,REMOTE,0x1EA8718B,0x5,,0x0623,ACK
6.488926708333334,177,DATA,0x575,0xC,0xC6 0x23 0x38 0x63 0x30 0x86 0x10 0x84,0x1084,ACK
6.566902250000000,178,REMOTE,0x1FA87188,0x5,,0x0623,ACK
6.586902791666667,179,REMOTE,0x1EA8718C,0x5,,0x0623,ACK
6.588902041666667,180,DATA,0x575,0xC,0xC6 0x33 0x38 0x63 0x30 0x86 0x10 0x84,0x1084,ACK
6.626931166666667,181,DATA,0x575,0x1,0xC6,0x1994,ACK
6.706902083333333,182,REMOTE,0x1FA8718E,0x5,,0x0623,ACK
6.726902625000000,183,REMOTE,0x1EA87188,0x5,,0x0623,ACK
6.746903125000000,184,REMOTE,0x05F8718C,0x5,,0x0623,ACK
6.766934916666667,185,DATA,0x5D5,0x1,0xC6,0x1194,ACK
6.768934166666667,186,DATA,0x115,0xD,0xC4 0x3D 0x08 0x63 0x10 0x86 0x10 0x84,,
6.786904208333334,187,DATA,0x5D5,0x1,0xC6,0x1994,ACK
6.808904000000000,188,DATA,0x11D,0xE,0xC4 0x35 0x88 0x72 0x93 0xDF 0x67 0xD2,0x6AB0,ACK
6.809966125000000,189,REMOTE,0x1C5CBE57,0xA,,0x0842,ACK
6.810817375000000,190,DATA,0x5A9,0x6,0x31 0xEC 0x43 0x13 0xC4 0x2D,,
6.828904541666667,191,DATA,0x545,0x3,0xC4 0x35 0x88,0x31B8,NAK
6.846905791666667,192,REMOTE,0x05F8718A,0x5,,0x0623,ACK
6.868905625000000,193,DATA,0x1F2A718F,0x1,0x0C,0x2B08,NAK
7.266913125000000,194,DATA,0x1EA8718C,0x5,0x0C 0x46 0x10 0x84 0x21,0x0421,ACK
7.286913666666667,195,DATA,0x1EA8718A,0x5,0x0C 0x46 0x10 0x84 0x21,0x0421,ACK
7.288912916666667,196,DATA,0x575,0xC,0xC6 0x27 0x38 0x63 0x30 0x86 0x10 0x84,0x1084,ACK
7.368915041666667,197,DATA,0x525,0x5,0xC4 0x3E 0xD0 0xC4 0xB9,0x279F,
7.388915583333334,198,DATA,0x575,0xC,0xC6 0x37 0x38 0x63 0x30 0x86 0x10 0x84,0x1084,ACK
7.408916125000000,199,DATA,0x16A8B10B,0x1,0x08,0x3708,NAK
7.426913458333333,200,DATA,0x05F8718C,0x5,0x0C 0x46 0x10 0x84 0x21,,
7.466945791666666,201,DATA,0x1EA8718E,0x5,0x0C 0x46 0x10 0x84 0x21,,
7.546916666666666,202,DATA,0x15F8718D,0x5,0x0C 0x46 0x10 0x84 0x21,0x0421,ACK
7.666919875000000,203,DATA,0x555,0x1,0xC6,0x1ED4,ACK
7.708920208333334,204,DATA,0x515,0xD,0xC4 0x2D 0x88 0x62 0x30 0x86 0x10 0x84,0x10F6,ACK
7.726921500000000,205,DATA,0x1EA87189,0x5,0x0C 0x46 0x10 0x84 0x21,0x0421,ACK
7.746949333333333,206,DATA,0x05F8718D,0x5,0x0C 0x46 0x10 0x84 0x21,0x0421,ACK
7.766922541666666,207,DATA,0x555,0x1,0xC6,0x16D4,ACK
7.786923083333333,208,DATA,0x5D5,0x1,0xC6,0x1ED4,ACK
7.808922875000000,209,DATA,0x51D,0xE,0xC4 0x2D 0x88 0x72 0x93 0x9F 0x67 0xD2,0x6AB0,ACK
7.809985000000000,210,REMOTE,0x045CA72B,0x5,,0x0421,ACK
7.810781583333333,211,REMOTE,0x77C,0x2,,0x0C62,NAK
7.826924166666666,212,DATA,0x1EA8718F,0x5,0x0C 0x46 0x10 0x84 0x21,,
7.846920791666666,213,DATA,0x1EA87188,0x5,0x0C 0x46 0x10 0x84 0x21,0x0421,ACK
7.848920041666666,214,DATA,0x555,0x2,0xC4 0x2D,0x4421,ACK
7.866921333333333,215,DATA,0x1EA8718C,0x5,0x0C 0x46 0x10 0x84 0x21,,
7.870802708333334,216,REMOTE,0x252,0xC,,0x213B,NAK
7.886953083333333,217,DATA,0x5D5,0x1,0xC6,0x10D4,ACK
8.046926125000001,218,DATA,0x1EA87188,0x5,0x0C 0x46 0x10 0x84 0x21,0x0421,ACK
8.066926666666667,219,DATA,0x1EA8718C,0x5,0x0C 0x46 0x10 0x84 0x21,0x0421,ACK
8.086927166666667,220,DATA,0x05F8718A,0x5,0x0C 0x46 0x10 0x84 0x21,0x0421,ACK
8.206930375000001,221,DATA,0x575,0x1,0xC6,0x12D4,ACK
8.226930916666667,222,DATA,0x5D5,0x1,0xC6,0x1AD4,ACK
8.246927541666667,223,DATA,0x555,0x1,0xC6,0x16D4,ACK
8.366930750000000,224,DATA,0x1FA87189,0x5,0x0C 0x46 0x10 0x84 0x21,0x0421,ACK
8.368898791666666,225,REMOTE,0x5F4,0x2,,0x5C43,NAK
8.386931291666667,226,DATA,0x1EA8718D,0x5,0x0C 0x46 0x10 0x84 0x21,,
8.408931083333334,227,DATA,0x5D5,0x2,0xC4 0x3D,0x4421,ACK
8.426932333333333,228,DATA,0x15F8718F,0x5,0x0C 0x46 0x10 0x84 0x21,,
8.486933958333333,229,REMOTE,0x1EA87188,0x5,,0x0623,ACK
8.666934833333332,230,DATA,0x575,0x1,0xC6,0x19D4,ACK
8.686935374999999,231,DATA,0x555,0x1,0xC6,0x11D4,ACK
8.708935166666667,232,DATA,0x115,0xD,0xC4 0x3D 0x88 0x62 0x30 0x86 0x10 0x84,0x108D,ACK
8.726967666666667,233,REMOTE,0x05F8718A,0x5,,0x0623,ACK
8.746937000000001,234,REMOTE,0x1EA8718E,0x5,,0x0623,ACK
8.766937499999999,235,REMOTE,0x15F8718A,0x5,,0x0623,ACK
8.786938041666666,236,DATA,0x555,0x1,0xC6,0x1DD4,ACK
8.808937875000000,237,DATA,0x1EABB10F,0x1,0x0E,0x293D,NAK
8.809999958333334,238,REMOTE,0x045CA72B,0x5,,0x0421,ACK
8.810859041666667,239,DATA,0x652,0xC,0x63 0x58 0x86 0x27 0x88 0x7B,,
8.828930583333333,240,DATA,0x7C5,0x3,0xC4 0x3D 0x88,0x31B8,NAK
8.846939666666668,241,REMOTE,0x1EA87189,0x5,,0x0623,ACK
8.848938916666667,242,DATA,0x555,0x2,0xC4 0x3D,0x4421,ACK
8.866971416666667,243,DATA,0x555,0x1,0xC6,0x1BD4,ACK
8.906941249999999,244,DATA,0x5D5,0x1,0xC6,,
8.926941791666666,245,REMOTE,0x1FA8718B,0xA,,0x0C46,ACK
8.947223458333333,246,DATA,0x1C306108,0x1,0x08,0x2108,NAK
9.067226666666667,247,DATA,0x1C306108,0x1,0x08,0x2108,NAK
9.086942166666667,248,REMOTE,0x1EA8718B,0xA,,0x0C46,ACK
9.107223833333334,249,DATA,0x14306108,0x1,0x08,0x2108,NAK
9.126943208333334,250,DATA,0x555,0x1,0xC6,0x11D4,ACK
9.146951541666667,251,REMOTE,0x05F8718C,0x5,,0x0623,ACK
9.166944291666667,252,REMOTE,0x1EA87188,0x5,,0x0623,ACK
9.326948541666667,253,DATA,0x575,0x1,0xC6,0x11D4,ACK
9.346949083333334,254,DATA,0x5D5,0x1,0xC6,0x19D4,ACK
9.366949625000000,255,REMOTE,0x1FA8718A,0x5,,0x0623,ACK
9.368948874999999,256,DATA,0x525,0x5,0xC4 0x37 0x68 0x62 0x5C,0x4F6F,NAK
9.386950166666667,257,REMOTE,0x1EA8718E,0x5,,0x0623,ACK
9.388965041666667,258,REMOTE,0x17EB318E,0x7,,0x0633,ACK
9.390964333333333,259,DATA,0x384,0x0,,0x42D0,ACK
9.406950666666667,260,REMOTE,0x05F8718A,0x5,,0x0623,ACK
9.408949958333332,261,DATA,0x5D5,0x2,0xC4 0x2D,0x4421,ACK
9.426955124999999,262,REMOTE,0x1FA8718E,0x5,,0x0623,ACK
9.446975166666666,263,REMOTE,0x15F87189,0x5,,0x0623,ACK
9.466952291666667,264,REMOTE,0x1FA8718D,0x5,,0x0623,ACK
9.486948916666666,265,REMOTE,0x1FA87189,0x5,,0x0623,ACK
9.488948166666667,266,REMOTE,0x05FB3188,0x7,,0x0633,ACK
9.547231666666667,267,DATA,0x14306108,0x1,0x08,0x2108,NAK
9.566958874999999,268,REMOTE,0x1EA8718B,0xA,,0x0C46,ACK
9.586978916666666,269,DATA,0x5D5,0x1,0xC6,,
9.686954249999999,270,DATA,0x5D5,0x1,0xC6,0x17E8,NAK
9.690991833333333,271,DATA,0x004,0x0,,0x5A10,ACK
9.747237000000000,272,DATA,0x1C306108,0x1,0x08,0x2108,NAK
9.766956374999999,273,DATA,0x575,0x1,0xC6,0x10D4,ACK
9.786956916666666,274,DATA,0x5D5,0x1,0xC6,0x18D4,ACK
9.806957458333333,275,DATA,0x1FA87188,0x5,0x0C 0x46 0x10 0x84 0x21,0x0421,ACK
9.826957999999999,276,DATA,0x1EA8718C,0x5,0x0C 0x46 0x10 0x84 0x21,0x0421,ACK
9.828957250000000,277,DATA,0x545,0x3,0xC4 0x2D 0x88,0x31B8,NAK
9.846962416666667,278,DATA,0x575,0x1,0xC6,0x14D4,ACK
9.848961708333333,279,DATA,0x1EA8B10B,0x1,0x08,0x370D,NAK
9.866982500000001,280,DATA,0x1EA8718E,0x5,0x0C 0x46 0x10 0x84 0x21,,
9.870871708333333,281,REMOTE,0x129710BD,0x0,,0x625C,NAK
10.366964583333333,282,DATA,0x5D5,0x1,0xC6,0x16D4,ACK
10.368940416666666,283,REMOTE,0x554,0x2,,0x5C43,NAK
10.408968833333333,284,DATA,0x1EA8B10F,0x1,0x08,0x3708,NAK
10.426993500000000,285,DATA,0x05F8718C,0x5,0x0C 0x46 0x10 0x84 0x21,,
10.466967250000000,286,DATA,0x5D5,0x1,0xC6,0x18D4,ACK
10.486967791666666,287,DATA,0x1FA8718A,0x5,0x0C 0x46 0x10 0x84 0x21,,
10.646972041666666,288,DATA,0x575,0x1,0xC6,0x14D4,ACK
10.666972583333333,289,DATA,0x555,0x1,0xC6,0x1CD4,ACK
10.686977041666667,290,DATA,0x1EA8718A,0x5,0x0C 0x46 0x10 0x84 0x21,0x0421,ACK
10.688976291666666,291,DATA,0x575,0xC,0xC6 0x2F 0x38 0x63 0x30 0x86 0x10 0x84,0x1084,ACK
10.708992458333332,292,DATA,0x7B5,0xD,0xC4 0x3D 0x88 0x62 0x30 0x86 0x10 0x84,0x10DD,ACK
10.726970291666667,293,DATA,0x1EA87189,0x5,0x0C 0x46 0x10 0x84 0x21,0x0421,ACK
10.746970833333334,294,DATA,0x1EA8718D,0x5,0x0C 0x46 0x10 0x84 0x21,0x0421,ACK
10.766971333333334,295,DATA,0x05F87189,0x5,0x0C 0x46 0x10 0x84 0x21,0x0421,ACK
10.786971875000001,296,DATA,0x555,0x1,0xC6,0x1AD4,ACK
10.806972416666667,297,DATA,0x5D5,0x1,0xC6,,
10.810033791666667,298,REMOTE,0x045CA72B,0x5,,0x0421,ACK
10.826976875000000,299,DATA,0x1EA8718F,0x5,0x0C 0x46 0x10 0x84 0x21,0x0421,ACK
10.828944874999999,300,DATA,0x0D512788,0xD,0x88 0x63 0x70 0x86 0x10 0x84 0x39 0x08,0x2108,NAK
10.846996916666667,301,DATA,0x5D5,0x1,0xC6,0x16D4,ACK
10.848996166666666,302,DATA,0x155,0x2,0xC4 0x3D,0x4421,ACK
10.866974000000001,303,DATA,0x05F8718F,0x5,0x0C 0x46 0x10 0x84 0x21,,
11.368982708333334,304,DATA,0x125,0x5,0xC4 0x3E 0xD0 0xC4 0xB9,0x3F3F,
11.409007208333334,305,DATA,0x555,0x2,0xC4 0x23,0x4421,ACK
11.426985041666667,306,DATA,0x575,0x1,0xC6,0x1BD4,ACK
11.446985583333333,307,DATA,0x5D5,0x1,0xC6,0x17E8,NAK
11.467267250000001,308,REMOTE,0x300,0x6,,0x0842,ACK
11.486986666666667,309,REMOTE,0x1EA8718B,0xA,,0x0C46,ACK
11.507268333333334,310,DATA,0x1C306108,0x1,0x08,0x2108,NAK
11.526991625000001,311,DATA,0x5D5,0x1,0xC6,0x13D4,ACK
11.627267625000000,312,DATA,0x1C306108,0x1,0x08,0x2108,NAK
11.646986999999999,313,REMOTE,0x05F8718B,0xA,,0x0C46,ACK
11.667272583333334,314,REMOTE,0x300,0x6,,0x0842,ACK
11.687011500000001,315,DATA,0x575,0x1,0xC6,0x11D4,ACK
11.708987875000000,316,DATA,0x515,0xD,0xC4 0x23 0x88 0x62 0x30 0x86 0x10 0x84,0x10E7,NAK
11.726989166666666,317,REMOTE,0x1EA87188,0x5,,0x0623,ACK
11.746989666666666,318,REMOTE,0x05F8718C,0x5,,0x0623,ACK
11.766990208333333,319,DATA,0x575,0x1,0xC6,0x15D4,ACK
11.808994458333334,320,DATA,0x595,0xE,0xC4 0x23 0x88 0x72 0x93 0xDF 0x67 0xD2,0x6AB0,ACK
11.810056583333333,321,REMOTE,0x165CA72B,0x5,,0x0421,ACK
11.810923458333333,322,DATA,0x4A4,0x8,0xC5 0xB1 0x0C 0x4F 0x10 0xB6 0x3F,,
11.829014500000000,323,DATA,0x16D,0x3,0xC4 0x23 0x88,0x31B8,NAK
11.848991625000000,324,DATA,0x5D5,0x2,0xC4 0x23,0x4421,ACK
11.866992874999999,325,DATA,0x575,0x1,0xC6,0x19D4,ACK
11.868992166666667,326,DATA,0x1F2A718B,0x1,0x0C,0x2B08,NAK
11.870874291666667,327,REMOTE,0x252,0xC,,0x210B,NAK
11.886993416666666,328,DATA,0x5D5,0x1,0xC6,0x11D4,ACK
12.046993791666667,329,REMOTE,0x1EA87189,0x5,,0x0623,ACK
12.066994333333334,330,REMOTE,0x1EA8718D,0x5,,0x0623,ACK
12.107022708333334,331,DATA,0x575,0x1,0xC6,,
12.126995916666667,332,DATA,0x5D5,0x1,0xC6,0x17E8,NAK
12.147277583333333,333,REMOTE,0x700,0x6,,0x0842,ACK
12.166997000000000,334,REMOTE,0x1EA87189,0x5,,0x0623,ACK
12.186997500000000,335,REMOTE,0x05F8718D,0x5,,0x0623,ACK
12.206998041666667,336,DATA,0x575,0x1,0xC6,0x13D4,ACK
12.227002499999999,337,REMOTE,0x1EA8718D,0x5,,0x0623,ACK
12.247022541666666,338,DATA,0x555,0x1,0xC6,0x17E8,NAK
12.267280791666666,339,DATA,0x1C306108,0x1,0x08,0x2108,NAK
12.287000166666667,340,REMOTE,0x05F8718B,0xA,,0x0C46,ACK
12.288999458333333,341,DATA,0x17EB318A,0x7,0x0C 0x66 0x10 0xC2 0x10 0x84 0x21,0x0421,ACK
12.307000708333334,342,DATA,0x575,0x1,0xC6,,
12.326997333333333,343,DATA,0x05F87188,0x5,0x0C 0x46 0x10 0x84 0x21,0x0421,ACK
12.346997875000000,344,DATA,0x555,0x1,0xC6,0x1894,ACK
12.408998750000000,345,DATA,0x555,0x2,0xC4 0x33,0x4421,ACK
12.427000000000000,346,DATA,0x05F8718E,0x5,0x0C 0x46 0x10 0x84 0x21,,
12.467001083333333,347,DATA,0x5D5,0x1,0xC6,0x1C94,ACK
12.487001625000000,348,DATA,0x1FA87188,0x5,0x0C 0x46 0x10 0x84 0x21,0x0421,ACK
12.489000875000000,349,DATA,0x05FB318A,0x7,0x0C 0x66 0x10 0xC2 0x10 0x84 0x21,0x0421,ACK
12.647009791666667,350,DATA,0x5D5,0x1,0xC6,0x1294,ACK
12.709006750000000,351,DATA,0x515,0xD,0xC4 0x33 0x88 0x62 0x30 0x86 0x10 0x84,0x109C,NAK
12.727008000000000,352,REMOTE,0x07C,0x7,,0x0C5A,NAK
12.747008541666666,353,DATA,0x575,0x1,0xC6,0x1E94,ACK
12.767009083333333,354,DATA,0x555,0x1,0xC6,0x1694,ACK
12.809032875000000,355,REMOTE,0x1EABB10C,0x1,,0x0729,ACK
12.810094958333334,356,REMOTE,0x1C5CBE57,0xA,,0x0842,ACK
12.810954041666667,357,DATA,0x652,0xC,0x63 0xD8 0x86 0x27 0x88 0x66 0xDF,,
12.847007333333334,358,DATA,0x1EA87189,0x5,0x0C 0x46 0x10 0x84 0x21,0x0421,ACK
12.849006583333333,359,DATA,0x555,0x2,0xC4 0x33,0x4421,ACK
12.887008375000001,360,DATA,0x575,0x1,0xC6,0x1694,ACK
12.907008916666667,361,DATA,0x5D5,0x1,0xC6,0x1E94,ACK
12.927013375000000,362,DATA,0x1EA8718B,0x5,0x0C 0x46 0x10 0x84 0x21,0x0421,ACK
12.947033416666667,363,DATA,0x5D5,0x1,0xC6,0x1E94,ACK
12.967010500000001,364,DATA,0x05F87188,0x5,0x0C 0x46 0x10 0x84 0x21,0x0421,ACK
12.987011041666667,365,DATA,0x575,0x1,0xC6,0x1894,ACK
13.027012125000001,366,DATA,0x1FA8718C,0x5,0x0C 0x46 0x10 0x84 0x21,0x0421,ACK
13.047012666666667,367,DATA,0x1EA8718A,0x5,0x0C 0x46 0x10 0x84 0x21,0x0421,ACK
13.067017083333333,368,DATA,0x575,0x1,0xC6,0x1C94,ACK
13.087037166666667,369,DATA,0x1EA8718A,0x5,0x0C 0x46 0x10 0x84 0x21,0x0421,ACK
13.089036416666668,370,DATA,0x575,0xC,0xC6 0x29 0x38 0x63 0x30 0x86 0x10 0x84,0x1084,ACK
13.187012500000000,371,DATA,0x1EA8718C,0x5,0x0C 0x46 0x10 0x84 0x21,0x0421,ACK
13.347020666666667,372,DATA,0x1EA8718D,0x5,0x0C 0x46 0x10 0x84 0x21,0x0421,ACK
13.367040708333333,373,DATA,0x555,0x1,0xC6,0x1694,ACK
13.409017625000001,374,DATA,0x5D5,0x2,0xC4 0x23,0x4421,ACK
13.427018875000000,375,DATA,0x575,0x1,0xC6,0x1E94,ACK
13.447019416666667,376,DATA,0x555,0x1,0xC6,0x1294,ACK
13.467019958333333,377,DATA,0x5D5,0x1,0xC6,0x1A94,ACK
13.487024375000001,378,DATA,0x05F87189,0x5,0x0C 0x46 0x10 0x84 0x21,0x0421,ACK
13.489023666666666,379,DATA,0x17EB3189,0x7,0x0C 0x66 0x10 0xC2 0x10 0x84 0x21,0x0421,ACK
13.547022083333333,380,DATA,0x555,0x1,0xC6,0x1E94,ACK
13.709021708333333,381,DATA,0x115,0xD,0xC4 0x23 0x88 0x62 0x30 0x86 0x10 0x84,0x10B7,NAK
13.727023000000001,382,REMOTE,0x1EA8718A,0x5,,0x0623,ACK
13.767027958333333,383,DATA,0x5D5,0x1,0xC6,0x1194,ACK
13.787051916666666,384,DATA,0x555,0x1,0xC6,0x1994,ACK
13.809024375000000,385,DATA,0x11D,0xE,0xC4 0x23 0x88 0x72 0x93 0x9F 0x67 0xD2,0x6AB0,ACK
13.810086500000001,386,REMOTE,0x045CA72B,0x5,,0x0421,ACK
13.829024916666667,387,DATA,0x565,0x3,0xC4 0x23 0x88,0x31B8,NAK
13.847026208333334,388,REMOTE,0x1EA8718A,0x5,,0x0623,ACK
13.849025458333333,389,DATA,0x5D5,0x2,0xC4 0x23,0x4421,ACK
13.867026708333333,390,REMOTE,0x15F8718E,0x5,,0x0623,ACK
13.927051750000000,391,DATA,0x5D5,0x1,0xC6,0x1394,ACK
13.947028875000001,392,REMOTE,0x1EA8718D,0x5,,0x0623,ACK
13.967029374999999,393,REMOTE,0x15F87189,0x5,,0x0623,ACK
13.987029916666666,394,DATA,0x555,0x1,0xC6,0x1B94,ACK
14.047035416666667,395,DATA,0x575,0x1,0xC6,0x1794,ACK
14.287034041666667,396,REMOTE,0x1EA87188,0x5,,0x0623,ACK
14.307034541666667,397,REMOTE,0x05F8718C,0x5,,0x0623,ACK
14.327038999999999,398,REMOTE,0x1FA8718A,0x5,,0x0623,ACK
14.347059041666666,399,DATA,0x575,0x1,0xC6,0x1D94,ACK
14.367036166666667,400,REMOTE,0x1EA8718A,0x5,,0x0623,ACK
14.369035416666666,401,DATA,0x525,0x5,0xC4 0x39 0x68 0x62 0x5C,0x6FBF,
14.409032583333333,402,DATA,0x555,0x2,0xC4 0x33,0x4421,ACK
14.427033833333333,403,REMOTE,0x05F8718C,0x5,,0x0623,ACK
14.467042749999999,404,REMOTE,0x1EA8718C,0x5,,0x0623,ACK
14.587038124999999,405,REMOTE,0x1FA8718D,0x5,,0x0623,ACK
14.607042541666667,406,REMOTE,0x05F87189,0x5,,0x0623,ACK
14.627066541666666,407,REMOTE,0x1EA8718D,0x5,,0x0623,ACK
14.647039708333333,408,REMOTE,0x15F8718B,0x5,,0x0623,ACK
14.667040249999999,409,DATA,0x555,0x1,0xC6,0x1F28,NAK
14.687040791666666,410,DATA,0x5D5,0x1,0xC6,0x1794,ACK
14.709040583333334,411,REMOTE,0x55A,0xE,,0x710C,NAK
14.727041874999999,412,REMOTE,0x1EA87189,0x5,,0x0623,ACK
14.747046291666667,413,DATA,0x555,0x1,0xC6,0x1B94,ACK
14.767066333333334,414,REMOTE,0x05F87189,0x5,,0x0623,ACK
14.787043458333333,415,DATA,0x5D5,0x1,0xC6,0x1B94,ACK
14.809043250000000,416,DATA,0x115,0xE,0xC4 0x33 0x88 0x72 0x93 0x9F 0x67 0xD2,0x6AB0,ACK
14.810105374999999,417,REMOTE,0x065CA72B,0x5,,0x0421,ACK
14.829039874999999,418,DATA,0x16D,0x3,0xC4 0x33 0x88,0x31B8,NAK
14.847041166666667,419,REMOTE,0x1EA8718B,0x5,,0x0623,ACK
14.849048249999999,420,REMOTE,0x1EA8B10C,0x1,,0x0437,ACK
14.867041708333334,421,REMOTE,0x1EA8718F,0xA,,0x0C46,ACK
14.869040958333333,422,DATA,0x5E5,0x9,0xC6 0x3D 0x88 0x62 0xB0 0x86 0x10 0x84,,
